 time            v(Vout+)        v(Vout-)        v(vout+)-v(vout-)
 0.00000000e+00  2.69032864e-07  7.68669576e-02 -7.68666885e-02 
 1.00000000e-12  2.69090476e-07  7.68669576e-02 -7.68666885e-02 
 2.00000000e-12  2.69120941e-07  7.68669577e-02 -7.68666885e-02 
 4.00000000e-12  2.69162060e-07  7.68669577e-02 -7.68666885e-02 
 8.00000000e-12  2.69172502e-07  7.68669577e-02 -7.68666885e-02 
 1.60000000e-11  2.69108416e-07  7.68669576e-02 -7.68666885e-02 
 3.20000000e-11  2.69013153e-07  7.68669576e-02 -7.68666885e-02 
 6.40000000e-11  2.69007502e-07  7.68669575e-02 -7.68666885e-02 
 1.28000000e-10  2.69051058e-07  7.68669576e-02 -7.68666885e-02 
 2.28000000e-10  2.69049759e-07  7.68669576e-02 -7.68666885e-02 
 3.28000000e-10  2.69026138e-07  7.68669576e-02 -7.68666885e-02 
 4.28000000e-10  2.69002774e-07  7.68669575e-02 -7.68666885e-02 
 5.28000000e-10  2.68986307e-07  7.68669575e-02 -7.68666885e-02 
 6.28000000e-10  2.68969024e-07  7.68669575e-02 -7.68666885e-02 
 7.28000000e-10  2.68952919e-07  7.68669575e-02 -7.68666885e-02 
 8.28000000e-10  2.68939181e-07  7.68669575e-02 -7.68666885e-02 
 9.28000000e-10  2.68926938e-07  7.68669575e-02 -7.68666885e-02 
 1.00000000e-09  2.68921107e-07  7.68669575e-02 -7.68666885e-02 
 1.01000000e-09  4.98626366e-07  7.68671872e-02 -7.68666885e-02 
 1.03000000e-09  2.66074028e-07  7.68669546e-02 -7.68666885e-02 
 1.07000000e-09  8.48750688e-08  7.68667734e-02 -7.68666885e-02 
 1.15000000e-09  3.88315621e-07  7.68670769e-02 -7.68666885e-02 
 1.25000000e-09  1.84539908e-07  7.68668731e-02 -7.68666885e-02 
 1.35000000e-09  3.70299993e-07  7.68670588e-02 -7.68666885e-02 
 1.45000000e-09  5.19042786e-07  7.68672076e-02 -7.68666886e-02 
 1.55000000e-09 -3.37605068e-07  7.68663510e-02 -7.68666886e-02 
 1.65000000e-09  2.03669955e-06  7.68687253e-02 -7.68666886e-02 
 1.75000000e-09  3.50738578e-07  7.68670395e-02 -7.68666887e-02 
 1.85000000e-09 -5.85774900e-06  7.68608309e-02 -7.68666887e-02 
 1.95000000e-09 -3.49547617e-05  7.68317320e-02 -7.68666868e-02 
 2.00000000e-09 -1.06676337e-04  7.67600074e-02 -7.68666837e-02 
 2.01000000e-09 -1.22215770e-04  7.67444668e-02 -7.68666826e-02 
 2.03000000e-09 -1.15639411e-04  7.67510407e-02 -7.68666801e-02 
 2.07000000e-09  4.31787671e-04  7.72984648e-02 -7.68666771e-02 
 2.15000000e-09  4.63491054e-03  8.15017194e-02 -7.68668089e-02 
 2.25000000e-09  8.97247844e-03  8.58400902e-02 -7.68676118e-02 
 2.35000000e-09  8.40706927e-03  8.52764600e-02 -7.68693907e-02 
 2.45000000e-09  5.25287999e-03  8.21249847e-02 -7.68721047e-02 
 2.55000000e-09 -7.62842694e-04  7.61129268e-02 -7.68757695e-02 
 2.65000000e-09 -9.23530368e-03  6.76454054e-02 -7.68807091e-02 
 2.75000000e-09 -8.77374741e-03  6.81133245e-02 -7.68870719e-02 
 2.85000000e-09 -5.95189747e-03  7.09424186e-02 -7.68943161e-02 
 2.95000000e-09 -4.19905474e-03  7.27026373e-02 -7.69016921e-02 
 3.05000000e-09 -2.87351123e-03  7.40352718e-02 -7.69087830e-02 
 3.15000000e-09 -1.93631850e-03  7.49790975e-02 -7.69154160e-02 
 3.25000000e-09 -1.23351060e-03  7.56880088e-02 -7.69215194e-02 
 3.35000000e-09 -7.42946302e-04  7.61841230e-02 -7.69270693e-02 
 3.45000000e-09 -3.69328588e-04  7.65627354e-02 -7.69320640e-02 
 3.55000000e-09 -1.21466722e-04  7.68150450e-02 -7.69365118e-02 
 3.65000000e-09  7.20407683e-05  7.70124659e-02 -7.69404251e-02 
 3.75000000e-09  1.86751826e-04  7.71305704e-02 -7.69438186e-02 
 3.85000000e-09  2.81463182e-04  7.72281703e-02 -7.69467072e-02 
 3.95000000e-09  3.23675929e-04  7.72727815e-02 -7.69491056e-02 
 4.05000000e-09  3.64966575e-04  7.73159951e-02 -7.69510285e-02 
 4.15000000e-09  3.68658866e-04  7.73211487e-02 -7.69524898e-02 
 4.25000000e-09  3.81978525e-04  7.73354817e-02 -7.69535031e-02 
 4.35000000e-09  3.66175863e-04  7.73202573e-02 -7.69540814e-02 
 4.45000000e-09  3.65727860e-04  7.73199650e-02 -7.69542372e-02 
 4.55000000e-09  3.40985621e-04  7.72949680e-02 -7.69539824e-02 
 4.65000000e-09  3.34590646e-04  7.72879194e-02 -7.69533287e-02 
 4.75000000e-09  3.06655912e-04  7.72589431e-02 -7.69522872e-02 
 4.85000000e-09  2.98516817e-04  7.72493855e-02 -7.69508687e-02 
 4.95000000e-09  2.70418344e-04  7.72195017e-02 -7.69490834e-02 
 5.05000000e-09  2.62699198e-04  7.72096406e-02 -7.69469415e-02 
 5.15000000e-09  2.35945769e-04  7.71803982e-02 -7.69444525e-02 
 5.25000000e-09  2.29674658e-04  7.71713005e-02 -7.69416258e-02 
 5.35000000e-09  2.04931974e-04  7.71434025e-02 -7.69384705e-02 
 5.45000000e-09  2.00520086e-04  7.71355154e-02 -7.69349953e-02 
 5.55000000e-09  1.78000990e-04  7.71092096e-02 -7.69312086e-02 
 5.65000000e-09  1.75531751e-04  7.71026505e-02 -7.69271188e-02 
 5.75000000e-09  1.55215418e-04  7.70779491e-02 -7.69227336e-02 
 5.85000000e-09  1.54607921e-04  7.70726689e-02 -7.69180610e-02 
 5.95000000e-09  1.36361553e-04  7.70494698e-02 -7.69131083e-02 
 6.00000000e-09  1.41363800e-04  7.70518928e-02 -7.69105290e-02 
 6.01000000e-09  1.35752189e-04  7.70457558e-02 -7.69100036e-02 
 6.03000000e-09  1.34243538e-04  7.70431912e-02 -7.69089476e-02 
 6.07000000e-09  1.31802750e-04  7.70386064e-02 -7.69068037e-02 
 6.15000000e-09  1.25570252e-04  7.70279598e-02 -7.69023896e-02 
 6.25000000e-09  1.19538599e-04  7.70161782e-02 -7.68966396e-02 
 6.35000000e-09  1.13562841e-04  7.70042004e-02 -7.68906375e-02 
 6.45000000e-09  1.08733659e-04  7.69931234e-02 -7.68843897e-02 
 6.55000000e-09  1.03786501e-04  7.69816890e-02 -7.68779025e-02 
 6.65000000e-09  1.00386514e-04  7.69715685e-02 -7.68711820e-02 
 6.75000000e-09  9.72693438e-05  7.69615034e-02 -7.68642341e-02 
 6.85000000e-09  9.51334888e-05  7.69521982e-02 -7.68570647e-02 
 6.95000000e-09  9.31986526e-05  7.69428782e-02 -7.68496796e-02 
 7.00000000e-09  9.24656895e-05  7.69383733e-02 -7.68459077e-02 
 7.01000000e-09  9.24873548e-05  7.69376333e-02 -7.68451460e-02 
 7.03000000e-09  9.19926906e-05  7.69356112e-02 -7.68436185e-02 
 7.07000000e-09  9.13197868e-05  7.69318587e-02 -7.68405389e-02 
 7.15000000e-09  9.08037627e-05  7.69250861e-02 -7.68342823e-02 
 7.25000000e-09  9.00556890e-05  7.69163380e-02 -7.68262823e-02 
 7.35000000e-09  9.00151842e-05  7.69081029e-02 -7.68180878e-02 
 7.45000000e-09  9.01014981e-05  7.68998050e-02 -7.68097035e-02 
 7.55000000e-09  9.07400646e-05  7.68918745e-02 -7.68011345e-02 
 7.65000000e-09  9.15567946e-05  7.68839421e-02 -7.67923853e-02 
 7.75000000e-09  9.28177093e-05  7.68762784e-02 -7.67834607e-02 
 7.85000000e-09  9.42745725e-05  7.68686396e-02 -7.67743650e-02 
 7.95000000e-09  9.60972151e-05  7.68611999e-02 -7.67651027e-02 
 8.05000000e-09  9.81176944e-05  7.68537958e-02 -7.67556781e-02 
 8.15000000e-09  1.00445040e-04  7.68465402e-02 -7.67460952e-02 
 8.25000000e-09  1.02964754e-04  7.68393230e-02 -7.67363582e-02 
 8.35000000e-09  1.05745142e-04  7.68322162e-02 -7.67264711e-02 
 8.45000000e-09  1.08708744e-04  7.68251464e-02 -7.67164376e-02 
 8.55000000e-09  1.11896191e-04  7.68181579e-02 -7.67062617e-02 
 8.65000000e-09  1.15255911e-04  7.68112028e-02 -7.66959469e-02 
 8.75000000e-09  1.18809758e-04  7.68043067e-02 -7.66854969e-02 
 8.85000000e-09  1.22524202e-04  7.67974395e-02 -7.66749153e-02 
 8.95000000e-09  1.26408263e-04  7.67906136e-02 -7.66642054e-02 
 9.05000000e-09  1.30441364e-04  7.67838119e-02 -7.66533706e-02 
 9.15000000e-09  1.34623740e-04  7.67770379e-02 -7.66424141e-02 
 9.25000000e-09  1.38943924e-04  7.67702833e-02 -7.66313393e-02 
 9.35000000e-09  1.43396284e-04  7.67635455e-02 -7.66201492e-02 
 9.45000000e-09  1.47975790e-04  7.67568227e-02 -7.66088469e-02 
 9.55000000e-09  1.52672938e-04  7.67501083e-02 -7.65974354e-02 
 9.65000000e-09  1.57487285e-04  7.67434048e-02 -7.65859175e-02 
 9.75000000e-09  1.62406766e-04  7.67367029e-02 -7.65742962e-02 
 9.85000000e-09  1.67434250e-04  7.67300084e-02 -7.65625742e-02 
 9.95000000e-09  1.72556068e-04  7.67233103e-02 -7.65507542e-02 
 1.00500000e-08  1.77777432e-04  7.67166164e-02 -7.65388390e-02 
 1.01500000e-08  1.83083692e-04  7.67099148e-02 -7.65268311e-02 
 1.02500000e-08  1.88481742e-04  7.67032148e-02 -7.65147331e-02 
 1.03500000e-08  1.93956369e-04  7.66965037e-02 -7.65025473e-02 
 1.04500000e-08  1.99515689e-04  7.66897921e-02 -7.64902764e-02 
 1.05500000e-08  2.05144236e-04  7.66830669e-02 -7.64779226e-02 
 1.06500000e-08  2.10851029e-04  7.66763394e-02 -7.64654883e-02 
 1.07500000e-08  2.16620512e-04  7.66695963e-02 -7.64529758e-02 
 1.08500000e-08  2.22462319e-04  7.66628495e-02 -7.64403872e-02 
 1.09500000e-08  2.28360957e-04  7.66560857e-02 -7.64277247e-02 
 1.10000000e-08  2.31338032e-04  7.66527044e-02 -7.64213664e-02 
 1.10100000e-08  2.32139868e-04  7.66522321e-02 -7.64200922e-02 
 1.10300000e-08  2.33133157e-04  7.66506757e-02 -7.64175425e-02 
 1.10700000e-08  2.35367457e-04  7.66478022e-02 -7.64124347e-02 
 1.11500000e-08  2.40445845e-04  7.66426319e-02 -7.64021860e-02 
 1.12500000e-08  2.46344935e-04  7.66356595e-02 -7.63893145e-02 
 1.13500000e-08  2.52631680e-04  7.66290090e-02 -7.63763773e-02 
 1.14500000e-08  2.58805361e-04  7.66221818e-02 -7.63633764e-02 
 1.15500000e-08  2.65061274e-04  7.66153749e-02 -7.63503137e-02 
 1.16500000e-08  2.72681166e-04  7.66098722e-02 -7.63371910e-02 
 1.17500000e-08  2.79053950e-04  7.66030643e-02 -7.63240103e-02 
 1.18500000e-08  2.76137049e-04  7.65869101e-02 -7.63107730e-02 
 1.19500000e-08  2.36151658e-04  7.65336301e-02 -7.62974784e-02 
 1.20000000e-08  1.45512608e-04  7.64363206e-02 -7.62908079e-02 
 1.20100000e-08  1.25038814e-04  7.64145102e-02 -7.62894714e-02 
 1.20300000e-08  1.26269974e-04  7.64130667e-02 -7.62867967e-02 
 1.20700000e-08  7.04989817e-04  7.69864324e-02 -7.62814426e-02 
 1.21500000e-08  5.24356239e-03  8.15144181e-02 -7.62708557e-02 
 1.22500000e-08  1.20778310e-02  8.83361790e-02 -7.62583480e-02 
 1.23500000e-08  1.42743841e-02  9.05215171e-02 -7.62471331e-02 
 1.24500000e-08  1.32606480e-02  8.94978458e-02 -7.62371978e-02 
 1.25500000e-08  1.10746444e-02  8.73028297e-02 -7.62281853e-02 
 1.26500000e-08  7.82944092e-03  8.40492640e-02 -7.62198230e-02 
 1.27500000e-08  3.52877103e-03  7.97408177e-02 -7.62120466e-02 
 1.28500000e-08 -1.68159909e-03  7.45233537e-02 -7.62049528e-02 
 1.29500000e-08 -8.26040425e-03  6.79383655e-02 -7.61987698e-02 
 1.30500000e-08 -1.81015611e-02  5.80923859e-02 -7.61939470e-02 
 1.31500000e-08 -2.17011165e-02  5.44897853e-02 -7.61909018e-02 
 1.32500000e-08 -1.82145456e-02  5.79748098e-02 -7.61893554e-02 
 1.33500000e-08 -1.31856847e-02  6.30026947e-02 -7.61883795e-02 
 1.34500000e-08 -8.83102077e-03  6.73560643e-02 -7.61870850e-02 
 1.35500000e-08 -5.51968506e-03  7.06652558e-02 -7.61849409e-02 
 1.36500000e-08 -3.07971682e-03  7.31019821e-02 -7.61816989e-02 
 1.37500000e-08 -1.32882424e-03  7.48484430e-02 -7.61772672e-02 
 1.38500000e-08 -7.40390539e-05  7.60975905e-02 -7.61716296e-02 
 1.39500000e-08  7.94182032e-04  7.69589856e-02 -7.61648035e-02 
 1.40500000e-08  1.39582963e-03  7.75526509e-02 -7.61568213e-02 
 1.41500000e-08  1.78348758e-03  7.79312078e-02 -7.61477202e-02 
 1.42500000e-08  2.03338674e-03  7.81709261e-02 -7.61375394e-02 
 1.43500000e-08  2.16589949e-03  7.82922166e-02 -7.61263171e-02 
 1.44500000e-08  2.23239873e-03  7.83464894e-02 -7.61140907e-02 
 1.45500000e-08  2.23519512e-03  7.83360910e-02 -7.61008959e-02 
 1.46500000e-08  2.21145349e-03  7.82982203e-02 -7.60867668e-02 
 1.47500000e-08  2.15341568e-03  7.82251515e-02 -7.60717358e-02 
 1.48500000e-08  2.09009662e-03  7.81459307e-02 -7.60558341e-02 
 1.49500000e-08  2.00821970e-03  7.80473106e-02 -7.60390909e-02 
 1.50500000e-08  1.93211026e-03  7.79536448e-02 -7.60215345e-02 
 1.51500000e-08  1.84556208e-03  7.78487538e-02 -7.60031917e-02 
 1.52500000e-08  1.77018311e-03  7.77542711e-02 -7.59840880e-02 
 1.53500000e-08  1.68830149e-03  7.76525494e-02 -7.59642479e-02 
 1.54500000e-08  1.61992511e-03  7.75636199e-02 -7.59436948e-02 
 1.55500000e-08  1.54673757e-03  7.74691887e-02 -7.59224512e-02 
 1.56500000e-08  1.48777369e-03  7.73883121e-02 -7.59005384e-02 
 1.57500000e-08  1.42452536e-03  7.73025025e-02 -7.58779771e-02 
 1.58500000e-08  1.37540565e-03  7.72301928e-02 -7.58547871e-02 
 1.59500000e-08  1.32195783e-03  7.71529452e-02 -7.58309874e-02 
 1.60000000e-08  1.30374805e-03  7.71226121e-02 -7.58188641e-02 
 1.60100000e-08  1.29687350e-03  7.71132924e-02 -7.58164189e-02 
 1.60300000e-08  1.28831843e-03  7.70998355e-02 -7.58115171e-02 
 1.60700000e-08  1.27196597e-03  7.70736103e-02 -7.58016443e-02 
 1.61500000e-08  1.24001901e-03  7.70216457e-02 -7.57816267e-02 
 1.62500000e-08  1.20450611e-03  7.69606111e-02 -7.57561050e-02 
 1.63500000e-08  1.17236718e-03  7.69024100e-02 -7.57300429e-02 
 1.64500000e-08  1.14402028e-03  7.68474763e-02 -7.57034560e-02 
 1.65500000e-08  1.11834552e-03  7.67947051e-02 -7.56763596e-02 
 1.66500000e-08  1.09654026e-03  7.67453086e-02 -7.56487683e-02 
 1.67500000e-08  1.07754554e-03  7.66982420e-02 -7.56206964e-02 
 1.68500000e-08  1.06152845e-03  7.66536862e-02 -7.55921578e-02 
 1.69500000e-08  1.04784849e-03  7.66110142e-02 -7.55631657e-02 
 1.70000000e-08  1.04183022e-03  7.65903335e-02 -7.55485033e-02 
 1.70100000e-08  1.04087674e-03  7.65864323e-02 -7.55455555e-02 
 1.70300000e-08  1.03847796e-03  7.65781294e-02 -7.55396514e-02 
 1.70700000e-08  1.03415361e-03  7.65619453e-02 -7.55277917e-02 
 1.71500000e-08  1.02704059e-03  7.65309098e-02 -7.55038692e-02 
 1.72500000e-08  1.01950637e-03  7.64930992e-02 -7.54735928e-02 
 1.73500000e-08  1.01405173e-03  7.64569641e-02 -7.54429124e-02 
 1.74500000e-08  1.01007036e-03  7.64219095e-02 -7.54118392e-02 
 1.75500000e-08  1.00782336e-03  7.63882077e-02 -7.53803843e-02 
 1.76500000e-08  1.00689735e-03  7.63554559e-02 -7.53485585e-02 
 1.77500000e-08  1.00743423e-03  7.63238065e-02 -7.53163723e-02 
 1.78500000e-08  1.00914158e-03  7.62929773e-02 -7.52838357e-02 
 1.79500000e-08  1.01209385e-03  7.62630525e-02 -7.52509587e-02 
 1.80500000e-08  1.01607880e-03  7.62338296e-02 -7.52177508e-02 
 1.81500000e-08  1.02113090e-03  7.62053522e-02 -7.51842213e-02 
 1.82500000e-08  1.02709334e-03  7.61774727e-02 -7.51503793e-02 
 1.83500000e-08  1.03397555e-03  7.61502093e-02 -7.51162337e-02 
 1.84500000e-08  1.04166066e-03  7.61234537e-02 -7.50817931e-02 
 1.85500000e-08  1.05014248e-03  7.60972082e-02 -7.50470657e-02 
 1.86500000e-08  1.05933322e-03  7.60713931e-02 -7.50120598e-02 
 1.87500000e-08  1.06921726e-03  7.60460006e-02 -7.49767834e-02 
 1.88500000e-08  1.07972818e-03  7.60209722e-02 -7.49412441e-02 
 1.89500000e-08  1.09084485e-03  7.59962943e-02 -7.49054494e-02 
 1.90500000e-08  1.10251687e-03  7.59719237e-02 -7.48694068e-02 
 1.91500000e-08  1.11472018e-03  7.59478436e-02 -7.48331234e-02 
 1.92500000e-08  1.12741635e-03  7.59240225e-02 -7.47966062e-02 
 1.93500000e-08  1.14058011e-03  7.59004421e-02 -7.47598620e-02 
 1.94500000e-08  1.15418210e-03  7.58770795e-02 -7.47228974e-02 
 1.95500000e-08  1.16819692e-03  7.58539158e-02 -7.46857189e-02 
 1.96500000e-08  1.18260216e-03  7.58309350e-02 -7.46483328e-02 
 1.97500000e-08  1.19737290e-03  7.58081183e-02 -7.46107454e-02 
 1.98500000e-08  1.21249210e-03  7.57854547e-02 -7.45729626e-02 
 1.99500000e-08  1.22793575e-03  7.57629260e-02 -7.45349903e-02 
 2.00500000e-08  1.24369101e-03  7.57405252e-02 -7.44968342e-02 
 2.01500000e-08  1.25973491e-03  7.57182348e-02 -7.44584999e-02 
 2.02500000e-08  1.27605798e-03  7.56960509e-02 -7.44199929e-02 
 2.03500000e-08  1.29263839e-03  7.56739570e-02 -7.43813186e-02 
 2.04500000e-08  1.30946931e-03  7.56519514e-02 -7.43424821e-02 
 2.05500000e-08  1.32653005e-03  7.56300185e-02 -7.43034885e-02 
 2.06500000e-08  1.34381596e-03  7.56081588e-02 -7.42643428e-02 
 2.07500000e-08  1.36130749e-03  7.55863573e-02 -7.42250498e-02 
 2.08500000e-08  1.37900171e-03  7.55646161e-02 -7.41856143e-02 
 2.09500000e-08  1.39688011e-03  7.55429211e-02 -7.41460410e-02 
 2.10000000e-08  1.40589026e-03  7.55320941e-02 -7.41262038e-02 
 2.10100000e-08  1.40788050e-03  7.55301123e-02 -7.41222318e-02 
 2.10300000e-08  1.41132714e-03  7.55256123e-02 -7.41142851e-02 
 2.10700000e-08  1.41844088e-03  7.55168171e-02 -7.40983762e-02 
 2.11500000e-08  1.43325269e-03  7.54997501e-02 -7.40664974e-02 
 2.12500000e-08  1.45149415e-03  7.54780312e-02 -7.40265371e-02 
 2.13500000e-08  1.47017039e-03  7.54566267e-02 -7.39864563e-02 
 2.14500000e-08  1.48886964e-03  7.54351289e-02 -7.39462593e-02 
 2.15500000e-08  1.50773622e-03  7.54136862e-02 -7.39059500e-02 
 2.16500000e-08  1.52813488e-03  7.53936672e-02 -7.38655323e-02 
 2.17500000e-08  1.54735102e-03  7.53723614e-02 -7.38250104e-02 
 2.18500000e-08  1.55666945e-03  7.53410569e-02 -7.37843875e-02 
 2.19500000e-08  1.52591396e-03  7.52695785e-02 -7.37436646e-02 
 2.20000000e-08  1.43700667e-03  7.51602711e-02 -7.37232644e-02 
 2.20100000e-08  1.41665024e-03  7.51358307e-02 -7.37191804e-02 
 2.20300000e-08  1.41872281e-03  7.51297330e-02 -7.37110102e-02 
 2.20700000e-08  2.00602345e-03  7.57006836e-02 -7.36946601e-02 
 2.21500000e-08  6.60054923e-03  8.02626132e-02 -7.36620640e-02 
 2.22500000e-08  1.37436285e-02  8.73656569e-02 -7.36220285e-02 
 2.23500000e-08  1.66942115e-02  9.02775291e-02 -7.35833176e-02 
 2.24500000e-08  1.60865813e-02  8.96325601e-02 -7.35459787e-02 
 2.25500000e-08  1.41221019e-02  8.76317500e-02 -7.35096481e-02 
 2.26500000e-08  1.13724801e-02  8.48464472e-02 -7.34739671e-02 
 2.27500000e-08  7.83588528e-03  8.12746460e-02 -7.34387607e-02 
 2.28500000e-08  3.51621342e-03  7.69202387e-02 -7.34040253e-02 
 2.29500000e-08 -1.44872809e-03  7.19211456e-02 -7.33698736e-02 
 2.30500000e-08 -7.18517244e-03  6.61513305e-02 -7.33365029e-02 
 2.31500000e-08 -1.63099264e-02  5.69943709e-02 -7.33042972e-02 
 2.32500000e-08 -2.35793020e-02  4.96944878e-02 -7.32737898e-02 
 2.33500000e-08 -2.25279386e-02  5.07171323e-02 -7.32450708e-02 
 2.34500000e-08 -1.73405280e-02  5.58768939e-02 -7.32174219e-02 
 2.35500000e-08 -1.17133908e-02  6.14764258e-02 -7.31898165e-02 
 2.36500000e-08 -7.01012156e-03  6.61513525e-02 -7.31614740e-02 
 2.37500000e-08 -3.42161085e-03  6.97103462e-02 -7.31319571e-02 
 2.38500000e-08 -7.89456752e-04  7.23116136e-02 -7.31010703e-02 
 2.39500000e-08  1.09553174e-03  7.41642843e-02 -7.30687525e-02 
 2.40500000e-08  2.41923384e-03  7.54542421e-02 -7.30350082e-02 
 2.41500000e-08  3.32581678e-03  7.63256884e-02 -7.29998716e-02 
 2.42500000e-08  3.92737501e-03  7.68907638e-02 -7.29633888e-02 
 2.43500000e-08  4.30586763e-03  7.72314771e-02 -7.29256095e-02 
 2.44500000e-08  4.52476448e-03  7.74113482e-02 -7.28865837e-02 
 2.45500000e-08  4.62906267e-03  7.74754222e-02 -7.28463595e-02 
 2.46500000e-08  4.65427856e-03  7.74592619e-02 -7.28049833e-02 
 2.47500000e-08  4.62444669e-03  7.73869456e-02 -7.27624989e-02 
 2.48500000e-08  4.55929912e-03  7.72782471e-02 -7.27189480e-02 
 2.49500000e-08  4.47110873e-03  7.71454787e-02 -7.26743700e-02 
 2.50500000e-08  4.37076956e-03  7.69995720e-02 -7.26288025e-02 
 2.51500000e-08  4.26402675e-03  7.68463077e-02 -7.25822810e-02 
 2.52500000e-08  4.15687990e-03  7.66917192e-02 -7.25348393e-02 
 2.53500000e-08  4.05150982e-03  7.65380195e-02 -7.24865097e-02 
 2.54500000e-08  3.95124776e-03  7.63885706e-02 -7.24373228e-02 
 2.55500000e-08  3.85637588e-03  7.62436838e-02 -7.23873079e-02 
 2.56500000e-08  3.76880376e-03  7.61052968e-02 -7.23364930e-02 
 2.57500000e-08  3.68784212e-03  7.59727469e-02 -7.22849048e-02 
 2.58500000e-08  3.61466831e-03  7.58472371e-02 -7.22325688e-02 
 2.59500000e-08  3.54812990e-03  7.57276395e-02 -7.21795096e-02 
 2.60000000e-08  3.51787729e-03  7.56705928e-02 -7.21527155e-02 
 2.60100000e-08  3.51164808e-03  7.56589806e-02 -7.21473325e-02 
 2.60300000e-08  3.50021338e-03  7.56367662e-02 -7.21365528e-02 
 2.60700000e-08  3.47816677e-03  7.55930786e-02 -7.21149118e-02 
 2.61500000e-08  3.43631377e-03  7.55076230e-02 -7.20713092e-02 
 2.62500000e-08  3.39008121e-03  7.54062993e-02 -7.20162181e-02 
 2.63500000e-08  3.34944406e-03  7.53099364e-02 -7.19604924e-02 
 2.64500000e-08  3.31430646e-03  7.52184587e-02 -7.19041522e-02 
 2.65500000e-08  3.28376577e-03  7.51309827e-02 -7.18472169e-02 
