 time            v(Vout+)        v(Vout-)        v(vout+)-v(vout-)
 0.00000000e+00  1.41931004e-05  1.37001389e+00 -1.36999970e+00 
 1.00000000e-12  1.41931446e-05  1.37001389e+00 -1.36999970e+00 
 2.00000000e-12  1.41931713e-05  1.37001389e+00 -1.36999970e+00 
 4.00000000e-12  1.41932108e-05  1.37001389e+00 -1.36999970e+00 
 8.00000000e-12  1.41932351e-05  1.37001389e+00 -1.36999970e+00 
 1.60000000e-11  1.41932149e-05  1.37001389e+00 -1.36999970e+00 
 3.20000000e-11  1.41931892e-05  1.37001389e+00 -1.36999970e+00 
 6.40000000e-11  1.41932662e-05  1.37001389e+00 -1.36999970e+00 
 1.28000000e-10  1.41934516e-05  1.37001389e+00 -1.36999970e+00 
 2.28000000e-10  1.41936914e-05  1.37001389e+00 -1.36999970e+00 
 3.28000000e-10  1.41939129e-05  1.37001389e+00 -1.36999970e+00 
 4.28000000e-10  1.41941123e-05  1.37001389e+00 -1.36999970e+00 
 5.28000000e-10  1.41943064e-05  1.37001389e+00 -1.36999970e+00 
 6.28000000e-10  1.41944745e-05  1.37001389e+00 -1.36999970e+00 
 7.28000000e-10  1.41946408e-05  1.37001389e+00 -1.36999970e+00 
 8.28000000e-10  1.41948161e-05  1.37001389e+00 -1.36999970e+00 
 9.28000000e-10  1.41949863e-05  1.37001389e+00 -1.36999970e+00 
 1.00000000e-09  1.41951123e-05  1.37001389e+00 -1.36999970e+00 
 1.01000000e-09  1.43462096e-05  1.37001404e+00 -1.36999970e+00 
 1.03000000e-09  1.42101166e-05  1.37001391e+00 -1.36999970e+00 
 1.07000000e-09  1.40811800e-05  1.37001378e+00 -1.36999970e+00 
 1.15000000e-09  1.42710389e-05  1.37001397e+00 -1.36999970e+00 
 1.25000000e-09  1.41395405e-05  1.37001384e+00 -1.36999970e+00 
 1.35000000e-09  1.42735529e-05  1.37001397e+00 -1.36999970e+00 
 1.45000000e-09  1.44420414e-05  1.37001414e+00 -1.36999970e+00 
 1.55000000e-09  1.38829206e-05  1.37001358e+00 -1.36999970e+00 
 1.65000000e-09  1.57722337e-05  1.37001547e+00 -1.36999970e+00 
 1.75000000e-09  1.51914339e-05  1.37001489e+00 -1.36999970e+00 
 1.85000000e-09  6.58953080e-06  1.37000629e+00 -1.36999970e+00 
 1.95000000e-09 -4.75422669e-05  1.36995215e+00 -1.36999969e+00 
 2.00000000e-09 -6.03375701e-05  1.36993934e+00 -1.36999968e+00 
 2.01000000e-09 -2.24291876e-05  1.36997724e+00 -1.36999967e+00 
 2.03000000e-09  1.52410064e-04  1.37015208e+00 -1.36999967e+00 
 2.07000000e-09  1.28690585e-03  1.37128659e+00 -1.36999968e+00 
 2.15000000e-09  5.47562874e-03  1.37547590e+00 -1.37000027e+00 
 2.25000000e-09  7.79146867e-03  1.37779463e+00 -1.37000316e+00 
 2.35000000e-09  7.39965131e-03  1.37740886e+00 -1.37000920e+00 
 2.45000000e-09  7.18923219e-03  1.37720764e+00 -1.37001841e+00 
 2.55000000e-09  5.85505965e-03  1.37588569e+00 -1.37003063e+00 
 2.65000000e-09  2.13122375e-03  1.37217743e+00 -1.37004621e+00 
 2.75000000e-09 -4.97366334e-03  1.36509294e+00 -1.37006661e+00 
 2.85000000e-09 -5.58984960e-04  1.36953402e+00 -1.37009301e+00 
 2.95000000e-09  1.12562526e-02  1.38137965e+00 -1.37012340e+00 
 3.05000000e-09  1.83690405e-02  1.38852237e+00 -1.37015333e+00 
 3.15000000e-09  2.19433877e-02  1.39212263e+00 -1.37017924e+00 
 3.25000000e-09  2.42789573e-02  1.39447825e+00 -1.37019929e+00 
 3.35000000e-09  2.60100377e-02  1.39622255e+00 -1.37021252e+00 
 3.45000000e-09  2.73636922e-02  1.39758202e+00 -1.37021833e+00 
 3.55000000e-09  2.84625424e-02  1.39867891e+00 -1.37021637e+00 
 3.65000000e-09  2.93770249e-02  1.39958346e+00 -1.37020643e+00 
 3.75000000e-09  3.01543180e-02  1.40034273e+00 -1.37018841e+00 
 3.85000000e-09  3.08246809e-02  1.40098697e+00 -1.37016229e+00 
 3.95000000e-09  3.14112984e-02  1.40153938e+00 -1.37012809e+00 
 4.05000000e-09  3.19295753e-02  1.40201545e+00 -1.37008588e+00 
 4.15000000e-09  3.23926590e-02  1.40242844e+00 -1.37003578e+00 
 4.25000000e-09  3.28092453e-02  1.40278716e+00 -1.36997791e+00 
 4.35000000e-09  3.31875426e-02  1.40309998e+00 -1.36991244e+00 
 4.45000000e-09  3.35328056e-02  1.40337234e+00 -1.36983953e+00 
 4.55000000e-09  3.38505286e-02  1.40360989e+00 -1.36975936e+00 
 4.65000000e-09  3.41440375e-02  1.40381617e+00 -1.36967213e+00 
 4.75000000e-09  3.44172081e-02  1.40399523e+00 -1.36957802e+00 
 4.85000000e-09  3.46722130e-02  1.40414946e+00 -1.36947725e+00 
 4.95000000e-09  3.49118998e-02  1.40428190e+00 -1.36937000e+00 
 5.05000000e-09  3.51377162e-02  1.40439421e+00 -1.36925649e+00 
 5.15000000e-09  3.53518231e-02  1.40448875e+00 -1.36913692e+00 
 5.25000000e-09  3.55551951e-02  1.40456669e+00 -1.36901150e+00 
 5.35000000e-09  3.57495146e-02  1.40462993e+00 -1.36888041e+00 
 5.45000000e-09  3.59354382e-02  1.40467932e+00 -1.36874388e+00 
 5.55000000e-09  3.61143035e-02  1.40471639e+00 -1.36860209e+00 
 5.65000000e-09  3.62865486e-02  1.40474178e+00 -1.36845523e+00 
 5.75000000e-09  3.64532549e-02  1.40475676e+00 -1.36830351e+00 
 5.85000000e-09  3.66147084e-02  1.40476180e+00 -1.36814709e+00 
 5.95000000e-09  3.67717952e-02  1.40475797e+00 -1.36798618e+00 
 6.00000000e-09  3.68486709e-02  1.40475276e+00 -1.36790408e+00 
 6.01000000e-09  3.68637192e-02  1.40475124e+00 -1.36788752e+00 
 6.03000000e-09  3.68942799e-02  1.40474858e+00 -1.36785430e+00 
 6.07000000e-09  3.69550049e-02  1.40474236e+00 -1.36778736e+00 
 6.15000000e-09  3.70739778e-02  1.40472550e+00 -1.36765152e+00 
 6.25000000e-09  3.72202899e-02  1.40469845e+00 -1.36747816e+00 
 6.35000000e-09  3.73634607e-02  1.40466444e+00 -1.36730098e+00 
 6.45000000e-09  3.75042894e-02  1.40462444e+00 -1.36712016e+00 
 6.55000000e-09  3.76426871e-02  1.40457852e+00 -1.36693584e+00 
 6.65000000e-09  3.77790932e-02  1.40452727e+00 -1.36674817e+00 
 6.75000000e-09  3.79136278e-02  1.40447095e+00 -1.36655732e+00 
 6.85000000e-09  3.80465618e-02  1.40440997e+00 -1.36636341e+00 
 6.95000000e-09  3.81780357e-02  1.40434463e+00 -1.36616660e+00 
 7.00000000e-09  3.82432074e-02  1.40431034e+00 -1.36606713e+00 
 7.01000000e-09  3.82563628e-02  1.40430351e+00 -1.36604715e+00 
 7.03000000e-09  3.82822194e-02  1.40428934e+00 -1.36600712e+00 
 7.07000000e-09  3.83339175e-02  1.40426066e+00 -1.36592674e+00 
 7.15000000e-09  3.84371851e-02  1.40420192e+00 -1.36576474e+00 
 7.25000000e-09  3.85650023e-02  1.40412498e+00 -1.36555998e+00 
 7.35000000e-09  3.86920980e-02  1.40404492e+00 -1.36535283e+00 
 7.45000000e-09  3.88181867e-02  1.40396158e+00 -1.36514339e+00 
 7.55000000e-09  3.89436664e-02  1.40387546e+00 -1.36493179e+00 
 7.65000000e-09  3.90683678e-02  1.40378650e+00 -1.36471813e+00 
 7.75000000e-09  3.91925629e-02  1.40369509e+00 -1.36450253e+00 
 7.85000000e-09  3.93161508e-02  1.40360122e+00 -1.36428507e+00 
 7.95000000e-09  3.94393224e-02  1.40350519e+00 -1.36406587e+00 
 8.05000000e-09  3.95620172e-02  1.40340703e+00 -1.36384502e+00 
 8.15000000e-09  3.96843711e-02  1.40330697e+00 -1.36362260e+00 
 8.25000000e-09  3.98063488e-02  1.40320506e+00 -1.36339872e+00 
 8.35000000e-09  3.99280472e-02  1.40310149e+00 -1.36317344e+00 
 8.45000000e-09  4.00494462e-02  1.40299631e+00 -1.36294686e+00 
 8.55000000e-09  4.01706155e-02  1.40288968e+00 -1.36271906e+00 
 8.65000000e-09  4.02915444e-02  1.40278165e+00 -1.36249011e+00 
 8.75000000e-09  4.04122823e-02  1.40267236e+00 -1.36226008e+00 
 8.85000000e-09  4.05328243e-02  1.40256187e+00 -1.36202905e+00 
 8.95000000e-09  4.06532053e-02  1.40245028e+00 -1.36179707e+00 
 9.05000000e-09  4.07734234e-02  1.40233765e+00 -1.36156423e+00 
 9.15000000e-09  4.08935028e-02  1.40222408e+00 -1.36133057e+00 
 9.25000000e-09  4.10134434e-02  1.40210961e+00 -1.36109617e+00 
 9.35000000e-09  4.11332615e-02  1.40199433e+00 -1.36086107e+00 
 9.45000000e-09  4.12529575e-02  1.40187829e+00 -1.36062534e+00 
 9.55000000e-09  4.13725418e-02  1.40176156e+00 -1.36038902e+00 
 9.65000000e-09  4.14920151e-02  1.40164418e+00 -1.36015217e+00 
 9.75000000e-09  4.16113834e-02  1.40152622e+00 -1.35991483e+00 
 9.85000000e-09  4.17306472e-02  1.40140771e+00 -1.35967706e+00 
 9.95000000e-09  4.18498091e-02  1.40128871e+00 -1.35943890e+00 
 1.00500000e-08  4.19688694e-02  1.40116926e+00 -1.35920039e+00 
 1.01500000e-08  4.20878283e-02  1.40104940e+00 -1.35896157e+00 
 1.02500000e-08  4.22066856e-02  1.40092917e+00 -1.35872248e+00 
 1.03500000e-08  4.23254397e-02  1.40080861e+00 -1.35848317e+00 
 1.04500000e-08  4.24440900e-02  1.40068775e+00 -1.35824366e+00 
 1.05500000e-08  4.25626337e-02  1.40056662e+00 -1.35800399e+00 
 1.06500000e-08  4.26810697e-02  1.40044527e+00 -1.35776420e+00 
 1.07500000e-08  4.27993942e-02  1.40032370e+00 -1.35752431e+00 
 1.08500000e-08  4.29176060e-02  1.40020197e+00 -1.35728436e+00 
 1.09500000e-08  4.30357004e-02  1.40008008e+00 -1.35704438e+00 
 1.10000000e-08  4.30947037e-02  1.40001909e+00 -1.35692438e+00 
 1.10100000e-08  4.31066370e-02  1.40000702e+00 -1.35690038e+00 
 1.10300000e-08  4.31301050e-02  1.39998249e+00 -1.35685238e+00 
 1.10700000e-08  4.31771552e-02  1.39993355e+00 -1.35675639e+00 
 1.11500000e-08  4.32715950e-02  1.39983601e+00 -1.35656442e+00 
 1.12500000e-08  4.33892000e-02  1.39971370e+00 -1.35632450e+00 
 1.13500000e-08  4.35069056e-02  1.39959155e+00 -1.35608464e+00 
 1.14500000e-08  4.36243966e-02  1.39946928e+00 -1.35584489e+00 
 1.15500000e-08  4.37417917e-02  1.39934704e+00 -1.35560524e+00 
 1.16500000e-08  4.38601127e-02  1.39922585e+00 -1.35536574e+00 
 1.17500000e-08  4.39779732e-02  1.39910436e+00 -1.35512639e+00 
 1.18500000e-08  4.40887205e-02  1.39897594e+00 -1.35488721e+00 
 1.19500000e-08  4.41651829e-02  1.39881341e+00 -1.35464823e+00 
 1.20000000e-08  4.41462750e-02  1.39867508e+00 -1.35452881e+00 
 1.20100000e-08  4.41395282e-02  1.39864446e+00 -1.35450493e+00 
 1.20300000e-08  4.41571021e-02  1.39861428e+00 -1.35445717e+00 
 1.20700000e-08  4.46043421e-02  1.39896603e+00 -1.35436169e+00 
 1.21500000e-08  4.81316296e-02  1.40230278e+00 -1.35417115e+00 
 1.22500000e-08  5.35673925e-02  1.40750242e+00 -1.35393503e+00 
 1.23500000e-08  5.71335154e-02  1.41083658e+00 -1.35370307e+00 
 1.24500000e-08  5.98855919e-02  1.41336238e+00 -1.35347679e+00 
 1.25500000e-08  6.12322868e-02  1.41448935e+00 -1.35325706e+00 
 1.26500000e-08  6.13148299e-02  1.41435894e+00 -1.35304411e+00 
 1.27500000e-08  6.16371942e-02  1.41447493e+00 -1.35283773e+00 
 1.28500000e-08  6.17187588e-02  1.41435639e+00 -1.35263763e+00 
 1.29500000e-08  6.12475737e-02  1.41369116e+00 -1.35244358e+00 
 1.30500000e-08  6.01315621e-02  1.41238706e+00 -1.35225549e+00 
 1.31500000e-08  5.82090217e-02  1.41028253e+00 -1.35207350e+00 
 1.32500000e-08  5.41885993e-02  1.40608688e+00 -1.35189828e+00 
 1.33500000e-08  4.59160291e-02  1.39764756e+00 -1.35173153e+00 
 1.34500000e-08  4.02632181e-02  1.39183907e+00 -1.35157585e+00 
 1.35500000e-08  4.66412330e-02  1.39807340e+00 -1.35143217e+00 
 1.36500000e-08  6.28762728e-02  1.41417330e+00 -1.35129703e+00 
 1.37500000e-08  7.81757053e-02  1.42933920e+00 -1.35116349e+00 
 1.38500000e-08  8.82653137e-02  1.43928997e+00 -1.35102466e+00 
 1.39500000e-08  9.45115539e-02  1.44538730e+00 -1.35087575e+00 
 1.40500000e-08  9.86468244e-02  1.44936082e+00 -1.35071400e+00 
 1.41500000e-08  1.01656511e-01  1.45219438e+00 -1.35053787e+00 
 1.42500000e-08  1.04006993e-01  1.45435351e+00 -1.35034652e+00 
 1.43500000e-08  1.05938521e-01  1.45607798e+00 -1.35013946e+00 
 1.44500000e-08  1.07570125e-01  1.45748659e+00 -1.34991646e+00 
 1.45500000e-08  1.08984254e-01  1.45866173e+00 -1.34967748e+00 
 1.46500000e-08  1.10223911e-01  1.45964647e+00 -1.34942256e+00 
 1.47500000e-08  1.11330680e-01  1.46048253e+00 -1.34915185e+00 
 1.48500000e-08  1.12323514e-01  1.46118908e+00 -1.34886557e+00 
 1.49500000e-08  1.13228424e-01  1.46179240e+00 -1.34856398e+00 
 1.50500000e-08  1.14053912e-01  1.46230129e+00 -1.34824738e+00 
 1.51500000e-08  1.14818449e-01  1.46273457e+00 -1.34791612e+00 
 1.52500000e-08  1.15525144e-01  1.46309569e+00 -1.34757055e+00 
 1.53500000e-08  1.16188304e-01  1.46339935e+00 -1.34721104e+00 
 1.54500000e-08  1.16807958e-01  1.46364595e+00 -1.34683799e+00 
 1.55500000e-08  1.17395902e-01  1.46384769e+00 -1.34645178e+00 
 1.56500000e-08  1.17950285e-01  1.46400311e+00 -1.34605283e+00 
 1.57500000e-08  1.18481293e-01  1.46412281e+00 -1.34564152e+00 
 1.58500000e-08  1.18985865e-01  1.46420413e+00 -1.34521827e+00 
 1.59500000e-08  1.19473105e-01  1.46425657e+00 -1.34478347e+00 
 1.60000000e-08  1.19707402e-01  1.46426925e+00 -1.34456185e+00 
 1.60100000e-08  1.19754519e-01  1.46427166e+00 -1.34451714e+00 
 1.60300000e-08  1.19847447e-01  1.46427495e+00 -1.34442751e+00 
 1.60700000e-08  1.20031394e-01  1.46427834e+00 -1.34424694e+00 
 1.61500000e-08  1.20391243e-01  1.46427197e+00 -1.34388073e+00 
 1.62500000e-08  1.20828858e-01  1.46424252e+00 -1.34341366e+00 
 1.63500000e-08  1.21253655e-01  1.46419027e+00 -1.34293662e+00 
 1.64500000e-08  1.21667418e-01  1.46411739e+00 -1.34244997e+00 
 1.65500000e-08  1.22071039e-01  1.46402512e+00 -1.34195408e+00 
 1.66500000e-08  1.22465915e-01  1.46391522e+00 -1.34144931e+00 
 1.67500000e-08  1.22852719e-01  1.46378873e+00 -1.34093601e+00 
 1.68500000e-08  1.23232425e-01  1.46364696e+00 -1.34041453e+00 
 1.69500000e-08  1.23605725e-01  1.46349093e+00 -1.33988521e+00 
 1.70000000e-08  1.23790112e-01  1.46340781e+00 -1.33961769e+00 
 1.70100000e-08  1.23826951e-01  1.46339088e+00 -1.33956393e+00 
 1.70300000e-08  1.23900115e-01  1.46335638e+00 -1.33945626e+00 
 1.70700000e-08  1.24045935e-01  1.46328599e+00 -1.33924006e+00 
 1.71500000e-08  1.24335604e-01  1.46313985e+00 -1.33880424e+00 
 1.72500000e-08  1.24693259e-01  1.46294656e+00 -1.33825330e+00 
 1.73500000e-08  1.25046935e-01  1.46274270e+00 -1.33769577e+00 
 1.74500000e-08  1.25396688e-01  1.46252862e+00 -1.33713193e+00 
 1.75500000e-08  1.25743173e-01  1.46230525e+00 -1.33656208e+00 
 1.76500000e-08  1.26086487e-01  1.46207297e+00 -1.33598648e+00 
 1.77500000e-08  1.26427110e-01  1.46183251e+00 -1.33540540e+00 
 1.78500000e-08  1.26765153e-01  1.46158425e+00 -1.33481910e+00 
 1.79500000e-08  1.27100975e-01  1.46132880e+00 -1.33422783e+00 
 1.80500000e-08  1.27434682e-01  1.46106650e+00 -1.33363182e+00 
 1.81500000e-08  1.27766548e-01  1.46079787e+00 -1.33303132e+00 
 1.82500000e-08  1.28096672e-01  1.46052321e+00 -1.33242654e+00 
 1.83500000e-08  1.28425260e-01  1.46024297e+00 -1.33181771e+00 
 1.84500000e-08  1.28752400e-01  1.45995743e+00 -1.33120503e+00 
 1.85500000e-08  1.29078252e-01  1.45966696e+00 -1.33058871e+00 
 1.86500000e-08  1.29402890e-01  1.45937184e+00 -1.32996895e+00 
 1.87500000e-08  1.29726438e-01  1.45907236e+00 -1.32934592e+00 
 1.88500000e-08  1.30048958e-01  1.45876879e+00 -1.32871983e+00 
 1.89500000e-08  1.30370544e-01  1.45846138e+00 -1.32809083e+00 
 1.90500000e-08  1.30691250e-01  1.45815036e+00 -1.32745911e+00 
 1.91500000e-08  1.31011148e-01  1.45783597e+00 -1.32682482e+00 
 1.92500000e-08  1.31330280e-01  1.45751840e+00 -1.32618812e+00 
 1.93500000e-08  1.31648702e-01  1.45719787e+00 -1.32554917e+00 
 1.94500000e-08  1.31966449e-01  1.45687455e+00 -1.32490810e+00 
 1.95500000e-08  1.32283562e-01  1.45654863e+00 -1.32426507e+00 
 1.96500000e-08  1.32600068e-01  1.45622027e+00 -1.32362020e+00 
 1.97500000e-08  1.32915999e-01  1.45588962e+00 -1.32297362e+00 
 1.98500000e-08  1.33231377e-01  1.45555685e+00 -1.32232547e+00 
 1.99500000e-08  1.33546222e-01  1.45522208e+00 -1.32167586e+00 
 2.00500000e-08  1.33860553e-01  1.45488546e+00 -1.32102491e+00 
 2.01500000e-08  1.34174385e-01  1.45454710e+00 -1.32037272e+00 
 2.02500000e-08  1.34487730e-01  1.45420714e+00 -1.31971941e+00 
 2.03500000e-08  1.34800598e-01  1.45386567e+00 -1.31906507e+00 
 2.04500000e-08  1.35112998e-01  1.45352281e+00 -1.31840981e+00 
 2.05500000e-08  1.35424937e-01  1.45317866e+00 -1.31775373e+00 
 2.06500000e-08  1.35736420e-01  1.45283332e+00 -1.31709690e+00 
 2.07500000e-08  1.36047450e-01  1.45248688e+00 -1.31643943e+00 
 2.08500000e-08  1.36358031e-01  1.45213942e+00 -1.31578139e+00 
 2.09500000e-08  1.36668163e-01  1.45179102e+00 -1.31512286e+00 
 2.10000000e-08  1.36823061e-01  1.45161649e+00 -1.31479343e+00 
 2.10100000e-08  1.36854157e-01  1.45158169e+00 -1.31472753e+00 
 2.10300000e-08  1.36915963e-01  1.45151169e+00 -1.31459573e+00 
 2.10700000e-08  1.37039634e-01  1.45137171e+00 -1.31433208e+00 
 2.11500000e-08  1.37287143e-01  1.45109178e+00 -1.31380464e+00 
 2.12500000e-08  1.37595819e-01  1.45074092e+00 -1.31314510e+00 
 2.13500000e-08  1.37904258e-01  1.45038962e+00 -1.31248536e+00 
 2.14500000e-08  1.38212184e-01  1.45003768e+00 -1.31182550e+00 
 2.15500000e-08  1.38519700e-01  1.44968526e+00 -1.31116556e+00 
 2.16500000e-08  1.38827394e-01  1.44933301e+00 -1.31050561e+00 
 2.17500000e-08  1.39136378e-01  1.44898209e+00 -1.30984571e+00 
 2.18500000e-08  1.39433874e-01  1.44861979e+00 -1.30918592e+00 
 2.19500000e-08  1.39687966e-01  1.44821423e+00 -1.30852627e+00 
 2.20000000e-08  1.39757292e-01  1.44795379e+00 -1.30819650e+00 
 2.20100000e-08  1.39766735e-01  1.44789729e+00 -1.30813056e+00 
 2.20300000e-08  1.39810159e-01  1.44780882e+00 -1.30799867e+00 
 2.20700000e-08  1.40254654e-01  1.44798956e+00 -1.30773491e+00 
 2.21500000e-08  1.43841678e-01  1.45104949e+00 -1.30720781e+00 
 2.22500000e-08  1.50368623e-01  1.45691971e+00 -1.30655109e+00 
 2.23500000e-08  1.55389096e-01  1.46128808e+00 -1.30589898e+00 
 2.24500000e-08  1.59567054e-01  1.46482065e+00 -1.30525360e+00 
 2.25500000e-08  1.63029479e-01  1.46764591e+00 -1.30461643e+00 
 2.26500000e-08  1.65236183e-01  1.46922468e+00 -1.30398850e+00 
 2.27500000e-08  1.65955145e-01  1.46932532e+00 -1.30337018e+00 
 2.28500000e-08  1.66447969e-01  1.46920927e+00 -1.30276130e+00 
 2.29500000e-08  1.66956090e-01  1.46911760e+00 -1.30216151e+00 
 2.30500000e-08  1.67014232e-01  1.46858470e+00 -1.30157046e+00 
 2.31500000e-08  1.66457674e-01  1.46744557e+00 -1.30098789e+00 
 2.32500000e-08  1.65276499e-01  1.46569016e+00 -1.30041366e+00 
 2.33500000e-08  1.63267290e-01  1.46311518e+00 -1.29984789e+00 
 2.34500000e-08  1.59023331e-01  1.45831456e+00 -1.29929122e+00 
 2.35500000e-08  1.50743836e-01  1.44948921e+00 -1.29874538e+00 
 2.36500000e-08  1.44205738e-01  1.44241871e+00 -1.29821297e+00 
 2.37500000e-08  1.48701674e-01  1.44639695e+00 -1.29769528e+00 
 2.38500000e-08  1.65025991e-01  1.46221526e+00 -1.29718927e+00 
 2.39500000e-08  1.83243799e-01  1.47993152e+00 -1.29668772e+00 
 2.40500000e-08  1.96604125e-01  1.49278665e+00 -1.29618252e+00 
 2.41500000e-08  2.05146101e-01  1.50081354e+00 -1.29566744e+00 
 2.42500000e-08  2.10721213e-01  1.50585984e+00 -1.29513863e+00 
 2.43500000e-08  2.14653539e-01  1.50924744e+00 -1.29459390e+00 
 2.44500000e-08  2.17647558e-01  1.51167960e+00 -1.29403204e+00 
 2.45500000e-08  2.20070233e-01  1.51352260e+00 -1.29345236e+00 
 2.46500000e-08  2.22107280e-01  1.51496182e+00 -1.29285454e+00 
 2.47500000e-08  2.23871938e-01  1.51611038e+00 -1.29223844e+00 
 2.48500000e-08  2.25426516e-01  1.51703062e+00 -1.29160410e+00 
 2.49500000e-08  2.26820831e-01  1.51777249e+00 -1.29095166e+00 
 2.50500000e-08  2.28082089e-01  1.51836343e+00 -1.29028134e+00 
 2.51500000e-08  2.29238782e-01  1.51883220e+00 -1.28959342e+00 
 2.52500000e-08  2.30304367e-01  1.51919260e+00 -1.28888823e+00 
 2.53500000e-08  2.31297783e-01  1.51946393e+00 -1.28816614e+00 
 2.54500000e-08  2.32225745e-01  1.51965330e+00 -1.28742755e+00 
 2.55500000e-08  2.33102107e-01  1.51977498e+00 -1.28667287e+00 
 2.56500000e-08  2.33929829e-01  1.51983236e+00 -1.28590253e+00 
 2.57500000e-08  2.34719767e-01  1.51983674e+00 -1.28511697e+00 
 2.58500000e-08  2.35472612e-01  1.51978926e+00 -1.28431665e+00 
 2.59500000e-08  2.36197329e-01  1.51969932e+00 -1.28350200e+00 
 2.60000000e-08  2.36547705e-01  1.51963713e+00 -1.28308943e+00 
 2.60100000e-08  2.36617459e-01  1.51962389e+00 -1.28300643e+00 
 2.60300000e-08  2.36755906e-01  1.51959608e+00 -1.28284018e+00 
 2.60700000e-08  2.37030008e-01  1.51953605e+00 -1.28250604e+00 
 2.61500000e-08  2.37566840e-01  1.51939827e+00 -1.28183143e+00 
 2.62500000e-08  2.38219877e-01  1.51919640e+00 -1.28097652e+00 
 2.63500000e-08  2.38854421e-01  1.51896350e+00 -1.28010908e+00 
 2.64500000e-08  2.39472861e-01  1.51870242e+00 -1.27922956e+00 
 2.65500000e-08  2.40076740e-01  1.51841511e+00 -1.27833837e+00 
