 time            v(Vout+)        v(Vout-)        v(Vout+)-v(Vout-)
 0.00000000e+00  2.68748332e-07  7.28595123e-02 -7.28592436e-02 
 1.00000000e-12  2.68816130e-07  7.28595124e-02 -7.28592436e-02 
 2.00000000e-12  2.68851683e-07  7.28595124e-02 -7.28592436e-02 
 4.00000000e-12  2.68899634e-07  7.28595125e-02 -7.28592436e-02 
 8.00000000e-12  2.68911169e-07  7.28595125e-02 -7.28592436e-02 
 1.60000000e-11  2.68835529e-07  7.28595124e-02 -7.28592436e-02 
 3.20000000e-11  2.68722718e-07  7.28595123e-02 -7.28592436e-02 
 6.40000000e-11  2.68711173e-07  7.28595123e-02 -7.28592436e-02 
 1.28000000e-10  2.68758304e-07  7.28595123e-02 -7.28592436e-02 
 2.28000000e-10  2.68776099e-07  7.28595123e-02 -7.28592436e-02 
 3.28000000e-10  2.68784473e-07  7.28595123e-02 -7.28592436e-02 
 4.28000000e-10  2.68784305e-07  7.28595123e-02 -7.28592436e-02 
 5.28000000e-10  2.68783002e-07  7.28595123e-02 -7.28592436e-02 
 6.28000000e-10  2.68777272e-07  7.28595123e-02 -7.28592436e-02 
 7.28000000e-10  2.68771822e-07  7.28595123e-02 -7.28592436e-02 
 8.28000000e-10  2.68763767e-07  7.28595123e-02 -7.28592436e-02 
 9.28000000e-10  2.68754651e-07  7.28595123e-02 -7.28592436e-02 
 1.00000000e-09  2.68743719e-07  7.28595123e-02 -7.28592436e-02 
 1.01000000e-09  4.96235315e-07  7.28597398e-02 -7.28592436e-02 
 1.03000000e-09  2.66200335e-07  7.28595098e-02 -7.28592436e-02 
 1.07000000e-09  8.70897749e-08  7.28593307e-02 -7.28592436e-02 
 1.15000000e-09  3.86267357e-07  7.28596298e-02 -7.28592436e-02 
 1.25000000e-09  1.85642829e-07  7.28594292e-02 -7.28592436e-02 
 1.35000000e-09  3.69418646e-07  7.28596130e-02 -7.28592436e-02 
 1.45000000e-09  5.20138123e-07  7.28597637e-02 -7.28592436e-02 
 1.55000000e-09 -3.18028322e-07  7.28589256e-02 -7.28592436e-02 
 1.65000000e-09  2.07845428e-06  7.28613221e-02 -7.28592436e-02 
 1.75000000e-09  4.99996871e-07  7.28597438e-02 -7.28592438e-02 
 1.85000000e-09 -6.28176574e-06  7.28529620e-02 -7.28592437e-02 
 1.95000000e-09 -2.95500332e-05  7.28296920e-02 -7.28592420e-02 
 2.00000000e-09 -9.60028029e-05  7.27632365e-02 -7.28592393e-02 
 2.01000000e-09 -1.14322602e-04  7.27449157e-02 -7.28592383e-02 
 2.03000000e-09 -1.27899289e-04  7.27313367e-02 -7.28592360e-02 
 2.07000000e-09  2.40908061e-04  7.31001400e-02 -7.28592319e-02 
 2.15000000e-09  3.89279007e-03  7.67521251e-02 -7.28593350e-02 
 2.25000000e-09  8.63619879e-03  8.14962410e-02 -7.28600423e-02 
 2.35000000e-09  8.59267407e-03  8.14543693e-02 -7.28616952e-02 
 2.45000000e-09  6.03999477e-03  7.89042667e-02 -7.28642720e-02 
 2.55000000e-09  8.74398436e-04  7.37421356e-02 -7.28677372e-02 
 2.65000000e-09 -7.51160840e-03  6.53607524e-02 -7.28723608e-02 
 2.75000000e-09 -9.55427611e-03  6.33241155e-02 -7.28783916e-02 
 2.85000000e-09 -6.56068352e-03  6.63247845e-02 -7.28854680e-02 
 2.95000000e-09 -4.67263948e-03  6.82202079e-02 -7.28928474e-02 
 3.05000000e-09 -3.26316507e-03  6.96368649e-02 -7.29000299e-02 
 3.15000000e-09 -2.24775514e-03  7.06590511e-02 -7.29068062e-02 
 3.25000000e-09 -1.49728926e-03  7.14157983e-02 -7.29130876e-02 
 3.35000000e-09 -9.55653069e-04  7.19631887e-02 -7.29188418e-02 
 3.45000000e-09 -5.54043055e-04  7.23700195e-02 -7.29240626e-02 
 3.55000000e-09 -2.70345003e-04  7.26584104e-02 -7.29287554e-02 
 3.65000000e-09 -6.04906035e-05  7.28724407e-02 -7.29329313e-02 
 3.75000000e-09  8.06400857e-05  7.30172435e-02 -7.29366034e-02 
 3.85000000e-09  1.84381594e-04  7.31241672e-02 -7.29397856e-02 
 3.95000000e-09  2.46904106e-04  7.31893960e-02 -7.29424919e-02 
 4.05000000e-09  2.92473977e-04  7.32372100e-02 -7.29447361e-02 
 4.15000000e-09  3.12387877e-04  7.32589193e-02 -7.29465314e-02 
 4.25000000e-09  3.26835892e-04  7.32747268e-02 -7.29478909e-02 
 4.35000000e-09  3.24450649e-04  7.32732775e-02 -7.29488269e-02 
 4.45000000e-09  3.23007850e-04  7.32723593e-02 -7.29493514e-02 
 4.55000000e-09  3.09713848e-04  7.32591899e-02 -7.29494761e-02 
 4.65000000e-09  3.00873989e-04  7.32500859e-02 -7.29492119e-02 
 4.75000000e-09  2.82972545e-04  7.32315422e-02 -7.29485697e-02 
 4.85000000e-09  2.71387662e-04  7.32189475e-02 -7.29475598e-02 
 4.95000000e-09  2.52281915e-04  7.31984742e-02 -7.29461922e-02 
 5.05000000e-09  2.40421252e-04  7.31848979e-02 -7.29444767e-02 
 5.15000000e-09  2.21874398e-04  7.31642969e-02 -7.29424225e-02 
 5.25000000e-09  2.10977912e-04  7.31510166e-02 -7.29400387e-02 
 5.35000000e-09  1.93835505e-04  7.31311695e-02 -7.29373340e-02 
 5.45000000e-09  1.84460776e-04  7.31187778e-02 -7.29343170e-02 
 5.55000000e-09  1.69064168e-04  7.31000601e-02 -7.29309959e-02 
 5.65000000e-09  1.61398587e-04  7.30887772e-02 -7.29273787e-02 
 5.75000000e-09  1.47820142e-04  7.30712932e-02 -7.29234730e-02 
 5.85000000e-09  1.41857910e-04  7.30611444e-02 -7.29192865e-02 
 5.95000000e-09  1.30033517e-04  7.30448599e-02 -7.29148263e-02 
 6.00000000e-09  1.29403622e-04  7.30418993e-02 -7.29124957e-02 
 6.01000000e-09  1.26677894e-04  7.30386982e-02 -7.29120203e-02 
 6.03000000e-09  1.25353629e-04  7.30364180e-02 -7.29110643e-02 
 6.07000000e-09  1.22958516e-04  7.30320796e-02 -7.29091211e-02 
 6.15000000e-09  1.17095121e-04  7.30222066e-02 -7.29051114e-02 
 6.25000000e-09  1.11228823e-04  7.30111011e-02 -7.28998723e-02 
 6.35000000e-09  1.05551624e-04  7.29999384e-02 -7.28943867e-02 
 6.45000000e-09  1.00700709e-04  7.29893618e-02 -7.28886611e-02 
 6.55000000e-09  9.59238262e-05  7.29786252e-02 -7.28827013e-02 
 6.65000000e-09  9.25048204e-05  7.29690184e-02 -7.28765136e-02 
 6.75000000e-09  8.95238622e-05  7.29596274e-02 -7.28701036e-02 
 6.85000000e-09  8.72558853e-05  7.29507330e-02 -7.28634771e-02 
 6.95000000e-09  8.53605021e-05  7.29420002e-02 -7.28566397e-02 
 7.00000000e-09  8.44729116e-05  7.29376163e-02 -7.28531434e-02 
 7.01000000e-09  8.45332457e-05  7.29369702e-02 -7.28524370e-02 
 7.03000000e-09  8.40263282e-05  7.29350465e-02 -7.28510202e-02 
 7.07000000e-09  8.33129313e-05  7.29314754e-02 -7.28481625e-02 
 7.15000000e-09  8.27010014e-05  7.29250529e-02 -7.28423519e-02 
 7.25000000e-09  8.18090982e-05  7.29167225e-02 -7.28349134e-02 
 7.35000000e-09  8.16037247e-05  7.29088884e-02 -7.28272847e-02 
 7.45000000e-09  8.15061277e-05  7.29009766e-02 -7.28194705e-02 
 7.55000000e-09  8.19453440e-05  7.28934210e-02 -7.28114757e-02 
 7.65000000e-09  8.25458174e-05  7.28858505e-02 -7.28033047e-02 
 7.75000000e-09  8.35792473e-05  7.28785414e-02 -7.27949621e-02 
 7.85000000e-09  8.47937679e-05  7.28712461e-02 -7.27864524e-02 
 7.95000000e-09  8.63659134e-05  7.28641456e-02 -7.27777796e-02 
 8.05000000e-09  8.81229317e-05  7.28570711e-02 -7.27689482e-02 
 8.15000000e-09  9.01809538e-05  7.28501429e-02 -7.27599620e-02 
 8.25000000e-09  9.24200727e-05  7.28432451e-02 -7.27508251e-02 
 8.35000000e-09  9.49157262e-05  7.28364570e-02 -7.27415413e-02 
 8.45000000e-09  9.75847707e-05  7.28296992e-02 -7.27321144e-02 
 8.55000000e-09  1.00474980e-04  7.28230232e-02 -7.27225482e-02 
 8.65000000e-09  1.03528789e-04  7.28163750e-02 -7.27128462e-02 
 8.75000000e-09  1.06775003e-04  7.28097870e-02 -7.27030120e-02 
 8.85000000e-09  1.10174352e-04  7.28032233e-02 -7.26930489e-02 
 8.95000000e-09  1.13742443e-04  7.27967029e-02 -7.26829604e-02 
 9.05000000e-09  1.17452926e-04  7.27902027e-02 -7.26727497e-02 
 9.15000000e-09  1.21312508e-04  7.27837326e-02 -7.26624201e-02 
 9.25000000e-09  1.25303946e-04  7.27772785e-02 -7.26519746e-02 
 9.35000000e-09  1.29427949e-04  7.27708442e-02 -7.26414163e-02 
 9.45000000e-09  1.33673754e-04  7.27644220e-02 -7.26307482e-02 
 9.55000000e-09  1.38038018e-04  7.27580112e-02 -7.26199732e-02 
 9.65000000e-09  1.42514642e-04  7.27516088e-02 -7.26090942e-02 
 9.75000000e-09  1.47097591e-04  7.27452115e-02 -7.25981139e-02 
 9.85000000e-09  1.51784105e-04  7.27388192e-02 -7.25870351e-02 
 9.95000000e-09  1.56566403e-04  7.27324268e-02 -7.25758604e-02 
 1.00500000e-08  1.61444166e-04  7.27260366e-02 -7.25645924e-02 
 1.01500000e-08  1.66408496e-04  7.27196422e-02 -7.25532337e-02 
 1.02500000e-08  1.71460818e-04  7.27132475e-02 -7.25417867e-02 
 1.03500000e-08  1.76591564e-04  7.27068455e-02 -7.25302539e-02 
 1.04500000e-08  1.81803465e-04  7.27004411e-02 -7.25186376e-02 
 1.05500000e-08  1.87086576e-04  7.26940267e-02 -7.25069402e-02 
 1.06500000e-08  1.92444602e-04  7.26876085e-02 -7.24951639e-02 
 1.07500000e-08  1.97867408e-04  7.26811783e-02 -7.24833109e-02 
 1.08500000e-08  2.03359408e-04  7.26747428e-02 -7.24713834e-02 
 1.09500000e-08  2.08910399e-04  7.26682939e-02 -7.24593835e-02 
 1.10000000e-08  2.11711557e-04  7.26650685e-02 -7.24533570e-02 
 1.10100000e-08  2.12477530e-04  7.26646268e-02 -7.24521492e-02 
 1.10300000e-08  2.13402696e-04  7.26631351e-02 -7.24497324e-02 
 1.10700000e-08  2.15498402e-04  7.26603889e-02 -7.24448904e-02 
 1.11500000e-08  2.20294573e-04  7.26554688e-02 -7.24351742e-02 
 1.12500000e-08  2.25845594e-04  7.26488150e-02 -7.24229694e-02 
 1.13500000e-08  2.31782522e-04  7.26424826e-02 -7.24107001e-02 
 1.14500000e-08  2.37611104e-04  7.26359795e-02 -7.23983684e-02 
 1.15500000e-08  2.43501667e-04  7.26294777e-02 -7.23859760e-02 
 1.16500000e-08  2.50320953e-04  7.26238458e-02 -7.23735248e-02 
 1.17500000e-08  2.57535588e-04  7.26185523e-02 -7.23610167e-02 
 1.18500000e-08  2.52480695e-04  7.26009337e-02 -7.23484530e-02 
 1.19500000e-08  2.01806155e-04  7.25376386e-02 -7.23358324e-02 
 1.20000000e-08  1.13439173e-04  7.24429381e-02 -7.23294989e-02 
 1.20100000e-08  1.01546200e-04  7.24297760e-02 -7.23282298e-02 
 1.20300000e-08  1.40417812e-04  7.24661078e-02 -7.23256900e-02 
 1.20700000e-08  9.39300883e-04  7.32599090e-02 -7.23206081e-02 
 1.21500000e-08  5.93839212e-03  7.82489867e-02 -7.23105946e-02 
 1.22500000e-08  1.26377322e-02  8.49366053e-02 -7.22988731e-02 
 1.23500000e-08  1.43618125e-02  8.66502996e-02 -7.22884871e-02 
 1.24500000e-08  1.31390931e-02  8.54184647e-02 -7.22793716e-02 
 1.25500000e-08  1.07418525e-02  8.30130207e-02 -7.22711681e-02 
 1.26500000e-08  7.19796309e-03  7.94616035e-02 -7.22636405e-02 
 1.27500000e-08  2.54576849e-03  7.48025322e-02 -7.22567638e-02 
 1.28500000e-08 -3.04305760e-03  6.92076117e-02 -7.22506693e-02 
 1.29500000e-08 -1.10680142e-02  6.11776444e-02 -7.22456586e-02 
 1.30500000e-08 -2.01356021e-02  5.21066317e-02 -7.22422338e-02 
 1.31500000e-08 -2.04648826e-02  5.17757423e-02 -7.22406249e-02 
 1.32500000e-08 -1.59937166e-02  5.62465332e-02 -7.22402498e-02 
 1.33500000e-08 -1.12437499e-02  6.09963637e-02 -7.22401136e-02 
 1.34500000e-08 -7.41217040e-03  6.48272890e-02 -7.22394594e-02 
 1.35500000e-08 -4.55814582e-03  6.76797378e-02 -7.22378836e-02 
 1.36500000e-08 -2.46235769e-03  6.97728533e-02 -7.22352110e-02 
 1.37500000e-08 -9.62533360e-04  7.12688498e-02 -7.22313832e-02 
 1.38500000e-08  1.15303709e-04  7.23417002e-02 -7.22263965e-02 
 1.39500000e-08  8.57958638e-04  7.30782304e-02 -7.22202718e-02 
 1.40500000e-08  1.37484314e-03  7.35878833e-02 -7.22130401e-02 
 1.41500000e-08  1.70417141e-03  7.39089080e-02 -7.22047366e-02 
 1.42500000e-08  1.91801234e-03  7.41134095e-02 -7.21953971e-02 
 1.43500000e-08  2.02726462e-03  7.42123219e-02 -7.21850573e-02 
 1.44500000e-08  2.08266538e-03  7.42564169e-02 -7.21737515e-02 
 1.45500000e-08  2.07977417e-03  7.42412873e-02 -7.21615131e-02 
 1.46500000e-08  2.05704117e-03  7.42054150e-02 -7.21483738e-02 
 1.47500000e-08  2.00148740e-03  7.41358515e-02 -7.21343641e-02 
 1.48500000e-08  1.94444898e-03  7.40639620e-02 -7.21195130e-02 
 1.49500000e-08  1.86829532e-03  7.39721437e-02 -7.21038484e-02 
 1.50500000e-08  1.80021537e-03  7.38876122e-02 -7.20873968e-02 
 1.51500000e-08  1.72014453e-03  7.37903282e-02 -7.20701837e-02 
 1.52500000e-08  1.65282163e-03  7.37050549e-02 -7.20522333e-02 
 1.53500000e-08  1.57700513e-03  7.36105741e-02 -7.20335690e-02 
 1.54500000e-08  1.51594901e-03  7.35301620e-02 -7.20142130e-02 
 1.55500000e-08  1.44794049e-03  7.34421274e-02 -7.19941869e-02 
 1.56500000e-08  1.39529421e-03  7.33688053e-02 -7.19735111e-02 
 1.57500000e-08  1.33621544e-03  7.32884209e-02 -7.19522055e-02 
 1.58500000e-08  1.29238674e-03  7.32226757e-02 -7.19302889e-02 
 1.59500000e-08  1.24214068e-03  7.31499205e-02 -7.19077798e-02 
 1.60000000e-08  1.22655393e-03  7.31228619e-02 -7.18963080e-02 
 1.60100000e-08  1.21964601e-03  7.31136397e-02 -7.18939937e-02 
 1.60300000e-08  1.21176899e-03  7.31011229e-02 -7.18893539e-02 
 1.60700000e-08  1.19676191e-03  7.30767691e-02 -7.18800071e-02 
 1.61500000e-08  1.16728058e-03  7.30283296e-02 -7.18610490e-02 
 1.62500000e-08  1.13452750e-03  7.29713929e-02 -7.18368654e-02 
 1.63500000e-08  1.10476753e-03  7.29169234e-02 -7.18121558e-02 
 1.64500000e-08  1.07845856e-03  7.28653943e-02 -7.17869357e-02 
 1.65500000e-08  1.05454816e-03  7.28157678e-02 -7.17612197e-02 
 1.66500000e-08  1.03427079e-03  7.27692927e-02 -7.17350219e-02 
 1.67500000e-08  1.01658435e-03  7.27249405e-02 -7.17083562e-02 
 1.68500000e-08  1.00161361e-03  7.26828496e-02 -7.16812360e-02 
 1.69500000e-08  9.88793139e-04  7.26424673e-02 -7.16536742e-02 
 1.70000000e-08  9.83145413e-04  7.26228767e-02 -7.16397313e-02 
 1.70100000e-08  9.82255873e-04  7.26191837e-02 -7.16369279e-02 
 1.70300000e-08  9.79988684e-04  7.26113013e-02 -7.16313126e-02 
 1.70700000e-08  9.75906135e-04  7.25959380e-02 -7.16200318e-02 
 1.71500000e-08  9.69193798e-04  7.25664664e-02 -7.15972726e-02 
 1.72500000e-08  9.62043786e-04  7.25305037e-02 -7.15684599e-02 
 1.73500000e-08  9.56841625e-04  7.24960953e-02 -7.15392536e-02 
 1.74500000e-08  9.53002138e-04  7.24626668e-02 -7.15096647e-02 
 1.75500000e-08  9.50790330e-04  7.24304943e-02 -7.14797039e-02 
 1.76500000e-08  9.49808710e-04  7.23991905e-02 -7.14493818e-02 
 1.77500000e-08  9.50205248e-04  7.23689136e-02 -7.14187083e-02 
 1.78500000e-08  9.51697434e-04  7.23393910e-02 -7.13876935e-02 
 1.79500000e-08  9.54366747e-04  7.23107137e-02 -7.13563469e-02 
 1.80500000e-08  9.58008047e-04  7.22826860e-02 -7.13246779e-02 
 1.81500000e-08  9.62661331e-04  7.22553568e-02 -7.12926955e-02 
 1.82500000e-08  9.68175444e-04  7.22285840e-02 -7.12604085e-02 
 1.83500000e-08  9.74564637e-04  7.22023903e-02 -7.12278256e-02 
 1.84500000e-08  9.81716340e-04  7.21766715e-02 -7.11949551e-02 
 1.85500000e-08  9.89628326e-04  7.21514336e-02 -7.11618052e-02 
 1.86500000e-08  9.98216349e-04  7.21266002e-02 -7.11283838e-02 
 1.87500000e-08  1.00746785e-03  7.21021665e-02 -7.10946987e-02 
 1.88500000e-08  1.01731943e-03  7.20780767e-02 -7.10607573e-02 
 1.89500000e-08  1.02775236e-03  7.20543194e-02 -7.10265670e-02 
 1.90500000e-08  1.03871874e-03  7.20308537e-02 -7.09921350e-02 
 1.91500000e-08  1.05019637e-03  7.20076646e-02 -7.09574682e-02 
 1.92500000e-08  1.06214903e-03  7.19847226e-02 -7.09225735e-02 
 1.93500000e-08  1.07455279e-03  7.19620103e-02 -7.08874575e-02 
 1.94500000e-08  1.08738028e-03  7.19395069e-02 -7.08521266e-02 
 1.95500000e-08  1.10060699e-03  7.19171942e-02 -7.08165872e-02 
 1.96500000e-08  1.11421232e-03  7.18950577e-02 -7.07808453e-02 
 1.97500000e-08  1.12817193e-03  7.18730791e-02 -7.07449071e-02 
 1.98500000e-08  1.14247045e-03  7.18512488e-02 -7.07087784e-02 
 1.99500000e-08  1.15708414e-03  7.18295489e-02 -7.06724648e-02 
 2.00500000e-08  1.17200171e-03  7.18079737e-02 -7.06359720e-02 
 2.01500000e-08  1.18720030e-03  7.17865057e-02 -7.05993054e-02 
 2.02500000e-08  1.20267180e-03  7.17651422e-02 -7.05624703e-02 
 2.03500000e-08  1.21839434e-03  7.17438663e-02 -7.05254720e-02 
 2.04500000e-08  1.23436238e-03  7.17226778e-02 -7.04883155e-02 
 2.05500000e-08  1.25055507e-03  7.17015607e-02 -7.04510056e-02 
 2.06500000e-08  1.26696894e-03  7.16805163e-02 -7.04135474e-02 
 2.07500000e-08  1.28358415e-03  7.16595296e-02 -7.03759454e-02 
 2.08500000e-08  1.30039891e-03  7.16386033e-02 -7.03382044e-02 
 2.09500000e-08  1.31739433e-03  7.16177230e-02 -7.03003287e-02 
 2.10000000e-08  1.32596220e-03  7.16073038e-02 -7.02813416e-02 
 2.10100000e-08  1.32786258e-03  7.16054023e-02 -7.02775397e-02 
 2.10300000e-08  1.33113352e-03  7.16010668e-02 -7.02699333e-02 
 2.10700000e-08  1.33789336e-03  7.15925988e-02 -7.02547054e-02 
 2.11500000e-08  1.35199242e-03  7.15761824e-02 -7.02241899e-02 
 2.12500000e-08  1.36934516e-03  7.15552816e-02 -7.01859365e-02 
 2.13500000e-08  1.38712689e-03  7.15346922e-02 -7.01475653e-02 
 2.14500000e-08  1.40492475e-03  7.15140054e-02 -7.01090806e-02 
 2.15500000e-08  1.42290978e-03  7.14933960e-02 -7.00704862e-02 
 2.16500000e-08  1.44245001e-03  7.14742360e-02 -7.00317860e-02 
 2.17500000e-08  1.46075609e-03  7.14537398e-02 -6.99929838e-02 
 2.18500000e-08  1.46861071e-03  7.14226935e-02 -6.99540828e-02 
 2.19500000e-08  1.43666815e-03  7.13517521e-02 -6.99150840e-02 
 2.20000000e-08  1.34787468e-03  7.12434213e-02 -6.98955466e-02 
 2.20100000e-08  1.32661285e-03  7.12182481e-02 -6.98916353e-02 
 2.20300000e-08  1.32135284e-03  7.12051631e-02 -6.98838103e-02 
 2.20700000e-08  1.85123268e-03  7.17193831e-02 -6.98681504e-02 
 2.21500000e-08  6.21753354e-03  7.60544592e-02 -6.98369256e-02 
 2.22500000e-08  1.31791986e-02  8.29777677e-02 -6.97985690e-02 
 2.23500000e-08  1.62362483e-02  8.59977415e-02 -6.97614932e-02 
 2.24500000e-08  1.58195758e-02  8.55453429e-02 -6.97257671e-02 
 2.25500000e-08  1.40188300e-02  8.37098812e-02 -6.96910512e-02 
 2.26500000e-08  1.14654086e-02  8.11224016e-02 -6.96569931e-02 
 2.27500000e-08  8.16197935e-03  7.77853904e-02 -6.96234110e-02 
 2.28500000e-08  4.08690490e-03  7.36771977e-02 -6.95902928e-02 
 2.29500000e-08 -6.56328155e-04  6.89014161e-02 -6.95577443e-02 
 2.30500000e-08 -6.05617553e-03  6.34697763e-02 -6.95259518e-02 
 2.31500000e-08 -1.43204155e-02  5.51748420e-02 -6.94952575e-02 
 2.32500000e-08 -2.25415446e-02  4.69246420e-02 -6.94661866e-02 
 2.33500000e-08 -2.26799116e-02  4.67590355e-02 -6.94389471e-02 
 2.34500000e-08 -1.79965702e-02  5.14163825e-02 -6.94129527e-02 
 2.35500000e-08 -1.25233108e-02  5.68638946e-02 -6.93872054e-02 
 2.36500000e-08 -7.82588081e-03  6.15350130e-02 -6.93608938e-02 
 2.37500000e-08 -4.19950037e-03  6.51340441e-02 -6.93335445e-02 
 2.38500000e-08 -1.50582097e-03  6.77991136e-02 -6.93049346e-02 
 2.39500000e-08  4.40624637e-04  6.97156085e-02 -6.92749839e-02 
 2.40500000e-08  1.83125268e-03  7.10749361e-02 -6.92436834e-02 
 2.41500000e-08  2.79606860e-03  7.20071258e-02 -6.92110572e-02 
 2.42500000e-08  3.45664381e-03  7.26337875e-02 -6.91771437e-02 
 2.43500000e-08  3.88325091e-03  7.30252371e-02 -6.91419862e-02 
 2.44500000e-08  4.15004922e-03  7.32556786e-02 -6.91056294e-02 
 2.45500000e-08  4.29139501e-03  7.33595124e-02 -6.90681173e-02 
 2.46500000e-08  4.35383724e-03  7.33833298e-02 -6.90294926e-02 
 2.47500000e-08  4.35122848e-03  7.33410243e-02 -6.89897959e-02 
 2.48500000e-08  4.31430327e-03  7.32633695e-02 -6.89490662e-02 
 2.49500000e-08  4.24535591e-03  7.31526968e-02 -6.89073409e-02 
 2.50500000e-08  4.16610410e-03  7.30307593e-02 -6.88646552e-02 
 2.51500000e-08  4.07241688e-03  7.28934600e-02 -6.88210431e-02 
 2.52500000e-08  3.98089225e-03  7.27574291e-02 -6.87765368e-02 
 2.53500000e-08  3.88390587e-03  7.26150730e-02 -6.87311672e-02 
 2.54500000e-08  3.79515977e-03  7.24801233e-02 -6.86849636e-02 
 2.55500000e-08  3.70519925e-03  7.23431535e-02 -6.86379542e-02 
 2.56500000e-08  3.62609014e-03  7.22162562e-02 -6.85901660e-02 
 2.57500000e-08  3.54748306e-03  7.20891079e-02 -6.85416249e-02 
 2.58500000e-08  3.48051449e-03  7.19728699e-02 -6.84923554e-02 
 2.59500000e-08  3.41445820e-03  7.18568397e-02 -6.84423815e-02 
 2.60000000e-08  3.38774925e-03  7.18048861e-02 -6.84171369e-02 
 2.60100000e-08  3.38055992e-03  7.17926243e-02 -6.84120644e-02 
 2.60300000e-08  3.36948707e-03  7.17713931e-02 -6.84019060e-02 
 2.60700000e-08  3.34819276e-03  7.17297027e-02 -6.83815099e-02 
 2.61500000e-08  3.30745391e-03  7.16478591e-02 -6.83404052e-02 
 2.62500000e-08  3.26219818e-03  7.15506495e-02 -6.82884514e-02 
 2.63500000e-08  3.22200213e-03  7.14578814e-02 -6.82358792e-02 
 2.64500000e-08  3.18695674e-03  7.13696650e-02 -6.81827083e-02 
 2.65500000e-08  3.15609811e-03  7.12850555e-02 -6.81289573e-02 
