 time            v(Vout+)        v(Vout-)        v(Vout+)-v(Vout-)
 0.00000000e+00  2.69060413e-07  8.71639502e-02 -8.71636811e-02 
 1.00000000e-12  2.69115709e-07  8.71639502e-02 -8.71636811e-02 
 2.00000000e-12  2.69146143e-07  8.71639502e-02 -8.71636811e-02 
 4.00000000e-12  2.69187193e-07  8.71639503e-02 -8.71636811e-02 
 8.00000000e-12  2.69198444e-07  8.71639503e-02 -8.71636811e-02 
 1.60000000e-11  2.69135911e-07  8.71639502e-02 -8.71636811e-02 
 3.20000000e-11  2.69038705e-07  8.71639501e-02 -8.71636811e-02 
 6.40000000e-11  2.69022650e-07  8.71639501e-02 -8.71636811e-02 
 1.28000000e-10  2.69055879e-07  8.71639502e-02 -8.71636811e-02 
 2.28000000e-10  2.69065807e-07  8.71639502e-02 -8.71636811e-02 
 3.28000000e-10  2.69074991e-07  8.71639502e-02 -8.71636811e-02 
 4.28000000e-10  2.69075418e-07  8.71639502e-02 -8.71636811e-02 
 5.28000000e-10  2.69072631e-07  8.71639502e-02 -8.71636811e-02 
 6.28000000e-10  2.69065277e-07  8.71639502e-02 -8.71636811e-02 
 7.28000000e-10  2.69057505e-07  8.71639502e-02 -8.71636811e-02 
 8.28000000e-10  2.69050010e-07  8.71639501e-02 -8.71636811e-02 
 9.28000000e-10  2.69043578e-07  8.71639501e-02 -8.71636811e-02 
 1.00000000e-09  2.69039257e-07  8.71639501e-02 -8.71636811e-02 
 1.01000000e-09  4.99043095e-07  8.71641801e-02 -8.71636811e-02 
 1.03000000e-09  2.65974925e-07  8.71639471e-02 -8.71636811e-02 
 1.07000000e-09  8.38829536e-08  8.71637650e-02 -8.71636811e-02 
 1.15000000e-09  3.88124620e-07  8.71640692e-02 -8.71636811e-02 
 1.25000000e-09  1.85181476e-07  8.71638663e-02 -8.71636811e-02 
 1.35000000e-09  3.73433988e-07  8.71640545e-02 -8.71636811e-02 
 1.45000000e-09  5.04083152e-07  8.71641852e-02 -8.71636811e-02 
 1.55000000e-09 -2.90433069e-07  8.71633907e-02 -8.71636811e-02 
 1.65000000e-09  1.99644400e-06  8.71656776e-02 -8.71636812e-02 
 1.75000000e-09  2.81907092e-07  8.71639632e-02 -8.71636813e-02 
 1.85000000e-09 -8.40777268e-06  8.71552734e-02 -8.71636811e-02 
 1.95000000e-09 -4.79647046e-05  8.71157137e-02 -8.71636784e-02 
 2.00000000e-09 -1.23502130e-04  8.70401723e-02 -8.71636744e-02 
 2.01000000e-09 -1.23700762e-04  8.70399724e-02 -8.71636731e-02 
 2.03000000e-09 -3.63042290e-05  8.71273661e-02 -8.71636703e-02 
 2.07000000e-09  1.05604223e-03  8.82197143e-02 -8.71636721e-02 
 2.15000000e-09  5.89993387e-03  9.30638034e-02 -8.71638695e-02 
 2.25000000e-09  9.10064369e-03  9.62654856e-02 -8.71648419e-02 
 2.35000000e-09  8.04358035e-03  9.52103688e-02 -8.71667884e-02 
 2.45000000e-09  4.60439166e-03  9.17740051e-02 -8.71696134e-02 
 2.55000000e-09 -1.72755276e-03  8.54458087e-02 -8.71733615e-02 
 2.65000000e-09 -1.00968933e-02  7.70814924e-02 -8.71783857e-02 
 2.75000000e-09 -9.03614649e-03  7.81486679e-02 -8.71848144e-02 
 2.85000000e-09 -6.07912970e-03  8.11129310e-02 -8.71920607e-02 
 2.95000000e-09 -4.19105248e-03  8.30083093e-02 -8.71993618e-02 
 3.05000000e-09 -2.78157016e-03  8.44247369e-02 -8.72063071e-02 
 3.15000000e-09 -1.79124616e-03  8.54214816e-02 -8.72127278e-02 
 3.25000000e-09 -1.05654131e-03  8.61620151e-02 -8.72185564e-02 
 3.35000000e-09 -5.51448027e-04  8.66723253e-02 -8.72237734e-02 
 3.45000000e-09 -1.72812061e-04  8.70555686e-02 -8.72283806e-02 
 3.55000000e-09  7.12356969e-05  8.73036257e-02 -8.72323900e-02 
 3.65000000e-09  2.57590291e-04  8.74934075e-02 -8.72358172e-02 
 3.75000000e-09  3.60879627e-04  8.75995594e-02 -8.72386797e-02 
 3.85000000e-09  4.43987895e-04  8.76849830e-02 -8.72409951e-02 
 3.95000000e-09  4.72627073e-04  8.77154078e-02 -8.72427807e-02 
 4.05000000e-09  5.01666915e-04  8.77457200e-02 -8.72440531e-02 
 4.15000000e-09  4.92212041e-04  8.77370403e-02 -8.72448283e-02 
 4.25000000e-09  4.94335774e-04  8.77394574e-02 -8.72451217e-02 
 4.35000000e-09  4.66879883e-04  8.77118277e-02 -8.72449478e-02 
 4.45000000e-09  4.56913697e-04  8.77012343e-02 -8.72443207e-02 
 4.55000000e-09  4.22320037e-04  8.76655737e-02 -8.72432537e-02 
 4.65000000e-09  4.08182158e-04  8.76499419e-02 -8.72417597e-02 
 4.75000000e-09  3.72149770e-04  8.76120008e-02 -8.72398510e-02 
 4.85000000e-09  3.57906649e-04  8.75954461e-02 -8.72375395e-02 
 4.95000000e-09  3.23270700e-04  8.75581071e-02 -8.72348364e-02 
 5.05000000e-09  3.10864614e-04  8.75426173e-02 -8.72317527e-02 
 5.15000000e-09  2.78896786e-04  8.75071957e-02 -8.72282989e-02 
 5.25000000e-09  2.69120690e-04  8.74936060e-02 -8.72244853e-02 
 5.35000000e-09  2.40258618e-04  8.74605801e-02 -8.72203215e-02 
 5.45000000e-09  2.33305204e-04  8.74491223e-02 -8.72158171e-02 
 5.55000000e-09  2.07558274e-04  8.74185394e-02 -8.72109811e-02 
 5.65000000e-09  2.03323763e-04  8.74091463e-02 -8.72058226e-02 
 5.75000000e-09  1.80499031e-04  8.73808489e-02 -8.72003499e-02 
 5.85000000e-09  1.78746866e-04  8.73733183e-02 -8.71945714e-02 
 5.95000000e-09  1.58570097e-04  8.73470653e-02 -8.71884952e-02 
 6.00000000e-09  1.63475347e-04  8.73488230e-02 -8.71853477e-02 
 6.01000000e-09  1.57502683e-04  8.73422108e-02 -8.71847081e-02 
 6.03000000e-09  1.55757873e-04  8.73391812e-02 -8.71834233e-02 
 6.07000000e-09  1.52909485e-04  8.73337292e-02 -8.71808197e-02 
 6.15000000e-09  1.45909640e-04  8.73213880e-02 -8.71754784e-02 
 6.25000000e-09  1.39122178e-04  8.73076770e-02 -8.71685548e-02 
 6.35000000e-09  1.32538239e-04  8.72939016e-02 -8.71613634e-02 
 6.45000000e-09  1.27338259e-04  8.72812492e-02 -8.71539109e-02 
 6.55000000e-09  1.22013234e-04  8.72682174e-02 -8.71462041e-02 
 6.65000000e-09  1.18411631e-04  8.72566612e-02 -8.71382495e-02 
 6.75000000e-09  1.15186590e-04  8.72452401e-02 -8.71300535e-02 
 6.85000000e-09  1.13114303e-04  8.72347366e-02 -8.71216223e-02 
 6.95000000e-09  1.11269168e-04  8.72242311e-02 -8.71129619e-02 
 7.00000000e-09  1.10646336e-04  8.72191938e-02 -8.71085475e-02 
 7.01000000e-09  1.10672671e-04  8.72183295e-02 -8.71076568e-02 
 7.03000000e-09  1.10219049e-04  8.72160902e-02 -8.71058712e-02 
 7.07000000e-09  1.09639514e-04  8.72119132e-02 -8.71022737e-02 
 7.15000000e-09  1.09336719e-04  8.72043122e-02 -8.70949755e-02 
 7.25000000e-09  1.08909136e-04  8.71945714e-02 -8.70856623e-02 
 7.35000000e-09  1.09240868e-04  8.71853834e-02 -8.70761425e-02 
 7.45000000e-09  1.09751343e-04  8.71761728e-02 -8.70664214e-02 
 7.55000000e-09  1.10855352e-04  8.71673595e-02 -8.70565042e-02 
 7.65000000e-09  1.12179339e-04  8.71585750e-02 -8.70463957e-02 
 7.75000000e-09  1.13981155e-04  8.71500821e-02 -8.70361010e-02 
 7.85000000e-09  1.16012467e-04  8.71416372e-02 -8.70256247e-02 
 7.95000000e-09  1.18436826e-04  8.71334085e-02 -8.70149716e-02 
 8.05000000e-09  1.21086191e-04  8.71252324e-02 -8.70041462e-02 
 8.15000000e-09  1.24064528e-04  8.71172174e-02 -8.69931529e-02 
 8.25000000e-09  1.27257098e-04  8.71092531e-02 -8.69819960e-02 
 8.35000000e-09  1.30728159e-04  8.71014080e-02 -8.69706798e-02 
 8.45000000e-09  1.34400086e-04  8.70936085e-02 -8.69592084e-02 
 8.55000000e-09  1.38310307e-04  8.70858961e-02 -8.69475858e-02 
 8.65000000e-09  1.42407037e-04  8.70782229e-02 -8.69358159e-02 
 8.75000000e-09  1.46709323e-04  8.70706119e-02 -8.69239025e-02 
 8.85000000e-09  1.51183896e-04  8.70630334e-02 -8.69118495e-02 
 8.95000000e-09  1.55837231e-04  8.70554977e-02 -8.68996605e-02 
 9.05000000e-09  1.60649077e-04  8.70479881e-02 -8.68873390e-02 
 9.15000000e-09  1.65617475e-04  8.70405060e-02 -8.68748886e-02 
 9.25000000e-09  1.70731369e-04  8.70330439e-02 -8.68623126e-02 
 9.35000000e-09  1.75983204e-04  8.70255976e-02 -8.68496144e-02 
 9.45000000e-09  1.81368474e-04  8.70181657e-02 -8.68367972e-02 
 9.55000000e-09  1.86875909e-04  8.70107402e-02 -8.68238643e-02 
 9.65000000e-09  1.92505679e-04  8.70033243e-02 -8.68108187e-02 
 9.75000000e-09  1.98244135e-04  8.69959076e-02 -8.67976635e-02 
 9.85000000e-09  2.04094799e-04  8.69884964e-02 -8.67844016e-02 
 9.95000000e-09  2.10042548e-04  8.69810785e-02 -8.67710360e-02 
 1.00500000e-08  2.16093294e-04  8.69736628e-02 -8.67575695e-02 
 1.01500000e-08  2.22231006e-04  8.69662358e-02 -8.67440048e-02 
 1.02500000e-08  2.28463345e-04  8.69588081e-02 -8.67303447e-02 
 1.03500000e-08  2.34773820e-04  8.69513657e-02 -8.67165919e-02 
 1.04500000e-08  2.41171365e-04  8.69439203e-02 -8.67027489e-02 
 1.05500000e-08  2.47639266e-04  8.69364575e-02 -8.66888183e-02 
 1.06500000e-08  2.54187364e-04  8.69289898e-02 -8.66748024e-02 
 1.07500000e-08  2.60798942e-04  8.69215028e-02 -8.66607039e-02 
 1.08500000e-08  2.67484485e-04  8.69140095e-02 -8.66465250e-02 
 1.09500000e-08  2.74227357e-04  8.69064954e-02 -8.66322680e-02 
 1.10000000e-08  2.77627264e-04  8.69027382e-02 -8.66251109e-02 
 1.10100000e-08  2.78514302e-04  8.69021912e-02 -8.66236768e-02 
 1.10300000e-08  2.79675974e-04  8.69004832e-02 -8.66208073e-02 
 1.10700000e-08  2.82247125e-04  8.68973064e-02 -8.66150593e-02 
 1.11500000e-08  2.88004022e-04  8.68915324e-02 -8.66035283e-02 
 1.12500000e-08  2.94749890e-04  8.68838005e-02 -8.65890506e-02 
 1.13500000e-08  3.01880252e-04  8.68763838e-02 -8.65745036e-02 
 1.14500000e-08  3.08887113e-04  8.68687764e-02 -8.65598893e-02 
 1.15500000e-08  3.16018306e-04  8.68612282e-02 -8.65452099e-02 
 1.16500000e-08  3.24262782e-04  8.68547301e-02 -8.65304673e-02 
 1.17500000e-08  3.31683286e-04  8.68473469e-02 -8.65156636e-02 
 1.18500000e-08  3.30341528e-04  8.68311418e-02 -8.65008003e-02 
 1.19500000e-08  3.02613566e-04  8.67884908e-02 -8.64858773e-02 
 1.20000000e-08  2.26377450e-04  8.67047696e-02 -8.64783922e-02 
 1.20100000e-08  2.02603305e-04  8.66794960e-02 -8.64768927e-02 
 1.20300000e-08  1.63939571e-04  8.66378317e-02 -8.64738921e-02 
 1.20700000e-08  3.76315906e-04  8.68441988e-02 -8.64678829e-02 
 1.21500000e-08  3.52400781e-03  8.99799315e-02 -8.64559237e-02 
 1.22500000e-08  9.75031953e-03  9.61918127e-02 -8.64414931e-02 
 1.23500000e-08  1.31776181e-02  9.96057668e-02 -8.64281487e-02 
 1.24500000e-08  1.30358758e-02  9.94519092e-02 -8.64160334e-02 
 1.25500000e-08  1.13617404e-02  9.77666092e-02 -8.64048688e-02 
 1.26500000e-08  8.94743519e-03  9.53417481e-02 -8.63943129e-02 
 1.27500000e-08  5.75468999e-03  9.21388694e-02 -8.63841794e-02 
 1.28500000e-08  1.74192586e-03  8.81163821e-02 -8.63744563e-02 
 1.29500000e-08 -2.98968372e-03  8.33755734e-02 -8.63652571e-02 
 1.30500000e-08 -8.80773998e-03  7.75490568e-02 -8.63567967e-02 
 1.31500000e-08 -1.83134315e-02  6.80360752e-02 -8.63495067e-02 
 1.32500000e-08 -2.34874307e-02  6.28564550e-02 -8.63438857e-02 
 1.33500000e-08 -2.06364942e-02  6.57033343e-02 -8.63398285e-02 
 1.34500000e-08 -1.50194723e-02  7.13169941e-02 -8.63364664e-02 
 1.35500000e-08 -9.77605174e-03  7.65567576e-02 -8.63328093e-02 
 1.36500000e-08 -5.71746310e-03  8.06107404e-02 -8.63282035e-02 
 1.37500000e-08 -2.75980477e-03  8.35625246e-02 -8.63223294e-02 
 1.38500000e-08 -6.76876161e-04  8.56381947e-02 -8.63150709e-02 
 1.39500000e-08  7.66780515e-04  8.70731941e-02 -8.63064136e-02 
 1.40500000e-08  1.73238805e-03  8.80287761e-02 -8.62963880e-02 
 1.41500000e-08  2.36284290e-03  8.86478852e-02 -8.62850423e-02 
 1.42500000e-08  2.74184545e-03  8.90142752e-02 -8.62724297e-02 
 1.43500000e-08  2.95273653e-03  8.92113401e-02 -8.62586036e-02 
 1.44500000e-08  3.03525623e-03  8.92788711e-02 -8.62436149e-02 
 1.45500000e-08  3.03976103e-03  8.92672728e-02 -8.62275118e-02 
 1.46500000e-08  2.98191204e-03  8.91922515e-02 -8.62103395e-02 
 1.47500000e-08  2.89385508e-03  8.90859953e-02 -8.61921402e-02 
 1.48500000e-08  2.77811802e-03  8.89510716e-02 -8.61729536e-02 
 1.49500000e-08  2.65679709e-03  8.88096139e-02 -8.61528168e-02 
 1.50500000e-08  2.52534851e-03  8.86571135e-02 -8.61317649e-02 
 1.51500000e-08  2.40035088e-03  8.85101818e-02 -8.61098309e-02 
 1.52500000e-08  2.27354926e-03  8.83605950e-02 -8.60870458e-02 
 1.53500000e-08  2.15851623e-03  8.82219554e-02 -8.60634391e-02 
 1.54500000e-08  2.04513893e-03  8.80841778e-02 -8.60390389e-02 
 1.55500000e-08  1.94536427e-03  8.79592358e-02 -8.60138716e-02 
 1.56500000e-08  1.84823077e-03  8.78361932e-02 -8.59879624e-02 
 1.57500000e-08  1.76481228e-03  8.77261478e-02 -8.59613356e-02 
 1.58500000e-08  1.68383674e-03  8.76178506e-02 -8.59340139e-02 
 1.59500000e-08  1.61590731e-03  8.75219267e-02 -8.59060194e-02 
 1.60000000e-08  1.58062126e-03  8.74723970e-02 -8.58917758e-02 
 1.60100000e-08  1.57536350e-03  8.74642680e-02 -8.58889045e-02 
 1.60300000e-08  1.56319879e-03  8.74463480e-02 -8.58831492e-02 
 1.60700000e-08  1.53956295e-03  8.74111255e-02 -8.58715625e-02 
 1.61500000e-08  1.49445159e-03  8.73425414e-02 -8.58480898e-02 
 1.62500000e-08  1.44411248e-03  8.72623120e-02 -8.58181995e-02 
 1.63500000e-08  1.39927756e-03  8.71869929e-02 -8.57877153e-02 
 1.64500000e-08  1.35962157e-03  8.71162766e-02 -8.57566551e-02 
 1.65500000e-08  1.32417997e-03  8.70492157e-02 -8.57250358e-02 
 1.66500000e-08  1.29414216e-03  8.69870161e-02 -8.56928739e-02 
 1.67500000e-08  1.26834587e-03  8.69285312e-02 -8.56601854e-02 
 1.68500000e-08  1.24637915e-03  8.68733648e-02 -8.56269857e-02 
 1.69500000e-08  1.22792817e-03  8.68212178e-02 -8.55932896e-02 
 1.70000000e-08  1.21969354e-03  8.67959531e-02 -8.55762596e-02 
 1.70100000e-08  1.21839525e-03  8.67912321e-02 -8.55728369e-02 
 1.70300000e-08  1.21522825e-03  8.67812103e-02 -8.55659820e-02 
 1.70700000e-08  1.20945653e-03  8.67616725e-02 -8.55522160e-02 
 1.71500000e-08  1.19981258e-03  8.67242745e-02 -8.55244619e-02 
 1.72500000e-08  1.18971227e-03  8.66790735e-02 -8.54893612e-02 
 1.73500000e-08  1.18229904e-03  8.66361179e-02 -8.54538188e-02 
 1.74500000e-08  1.17689943e-03  8.65947467e-02 -8.54178472e-02 
 1.75500000e-08  1.17371929e-03  8.65551780e-02 -8.53814587e-02 
 1.76500000e-08  1.17228661e-03  8.65169516e-02 -8.53446650e-02 
 1.77500000e-08  1.17270305e-03  8.64801807e-02 -8.53074776e-02 
 1.78500000e-08  1.17462756e-03  8.64445352e-02 -8.52699077e-02 
 1.79500000e-08  1.17810505e-03  8.64100711e-02 -8.52319660e-02 
 1.80500000e-08  1.18288263e-03  8.63765458e-02 -8.51936632e-02 
 1.81500000e-08  1.18897350e-03  8.63439828e-02 -8.51550093e-02 
 1.82500000e-08  1.19618703e-03  8.63122014e-02 -8.51160144e-02 
 1.83500000e-08  1.20451700e-03  8.62812051e-02 -8.50766881e-02 
 1.84500000e-08  1.21381855e-03  8.62508584e-02 -8.50370398e-02 
 1.85500000e-08  1.22407423e-03  8.62211530e-02 -8.49970787e-02 
 1.86500000e-08  1.23517268e-03  8.61919864e-02 -8.49568137e-02 
 1.87500000e-08  1.24709070e-03  8.61633443e-02 -8.49162536e-02 
 1.88500000e-08  1.25974173e-03  8.61351483e-02 -8.48754066e-02 
 1.89500000e-08  1.27309996e-03  8.61073811e-02 -8.48342812e-02 
 1.90500000e-08  1.28709754e-03  8.60799828e-02 -8.47928852e-02 
 1.91500000e-08  1.30170795e-03  8.60529346e-02 -8.47512267e-02 
 1.92500000e-08  1.31687757e-03  8.60261907e-02 -8.47093132e-02 
 1.93500000e-08  1.33258041e-03  8.59997325e-02 -8.46671521e-02 
 1.94500000e-08  1.34877369e-03  8.59735244e-02 -8.46247507e-02 
 1.95500000e-08  1.36543266e-03  8.59475488e-02 -8.45821162e-02 
 1.96500000e-08  1.38252295e-03  8.59217783e-02 -8.45392554e-02 
 1.97500000e-08  1.40002135e-03  8.58961964e-02 -8.44961751e-02 
 1.98500000e-08  1.41790007e-03  8.58707819e-02 -8.44528818e-02 
 1.99500000e-08  1.43613758e-03  8.58455197e-02 -8.44093821e-02 
 2.00500000e-08  1.45471132e-03  8.58203934e-02 -8.43656821e-02 
 2.01500000e-08  1.47360144e-03  8.57953895e-02 -8.43217881e-02 
 2.02500000e-08  1.49278952e-03  8.57704955e-02 -8.42777060e-02 
 2.03500000e-08  1.51225731e-03  8.57456989e-02 -8.42334416e-02 
 2.04500000e-08  1.53198976e-03  8.57209904e-02 -8.41890007e-02 
 2.05500000e-08  1.55197015e-03  8.56963589e-02 -8.41443888e-02 
 2.06500000e-08  1.57218611e-03  8.56717975e-02 -8.40996114e-02 
 2.07500000e-08  1.59262231e-03  8.56472961e-02 -8.40546738e-02 
 2.08500000e-08  1.61326863e-03  8.56228499e-02 -8.40095813e-02 
 2.09500000e-08  1.63411098e-03  8.55984498e-02 -8.39643388e-02 
 2.10000000e-08  1.64460406e-03  8.55862668e-02 -8.39416627e-02 
 2.10100000e-08  1.64689237e-03  8.55840149e-02 -8.39371225e-02 
 2.10300000e-08  1.65093342e-03  8.55789726e-02 -8.39280392e-02 
 2.10700000e-08  1.65923474e-03  8.55690905e-02 -8.39098558e-02 
 2.11500000e-08  1.67643078e-03  8.55498534e-02 -8.38734226e-02 
 2.12500000e-08  1.69765581e-03  8.55254156e-02 -8.38277598e-02 
 2.13500000e-08  1.71932110e-03  8.55012873e-02 -8.37819662e-02 
 2.14500000e-08  1.74101678e-03  8.54770632e-02 -8.37360464e-02 
 2.15500000e-08  1.76286342e-03  8.54528683e-02 -8.36900049e-02 
 2.16500000e-08  1.78668889e-03  8.54305349e-02 -8.36438460e-02 
 2.17500000e-08  1.80785871e-03  8.54054327e-02 -8.35975740e-02 
 2.18500000e-08  1.81809686e-03  8.53692894e-02 -8.35511926e-02 
 2.19500000e-08  1.79226765e-03  8.52969706e-02 -8.35047030e-02 
 2.20000000e-08  1.70508225e-03  8.51864988e-02 -8.34814165e-02 
 2.20100000e-08  1.68692062e-03  8.51636757e-02 -8.34767550e-02 
 2.20300000e-08  1.70021640e-03  8.51676461e-02 -8.34674297e-02 
 2.20700000e-08  2.35774407e-03  8.58065132e-02 -8.34487691e-02 
 2.21500000e-08  7.05725472e-03  9.04688112e-02 -8.34115565e-02 
 2.22500000e-08  1.40953103e-02  9.74610692e-02 -8.33657589e-02 
 2.23500000e-08  1.69440299e-02  1.00265313e-01 -8.33212826e-02 
 2.24500000e-08  1.62473378e-02  9.95254976e-02 -8.32781598e-02 
 2.25500000e-08  1.41330201e-02  9.73690373e-02 -8.32360172e-02 
 2.26500000e-08  1.12271309e-02  9.44216197e-02 -8.31944888e-02 
 2.27500000e-08  7.53976784e-03  9.06931640e-02 -8.31533962e-02 
 2.28500000e-08  3.06570836e-03  8.61784474e-02 -8.31127390e-02 
 2.29500000e-08 -2.06873677e-03  8.10039018e-02 -8.30726386e-02 
 2.30500000e-08 -8.18012457e-03  7.48531867e-02 -8.30333113e-02 
 2.31500000e-08 -1.81026231e-02  6.48925679e-02 -8.29951910e-02 
 2.32500000e-08 -2.47518892e-02  5.82069431e-02 -8.29588323e-02 
 2.33500000e-08 -2.27435301e-02  6.01807060e-02 -8.29242361e-02 
 2.34500000e-08 -1.69053947e-02  6.59851678e-02 -8.28905625e-02 
 2.35500000e-08 -1.09058127e-02  7.19509142e-02 -8.28567269e-02 
 2.36500000e-08 -6.01657339e-03  7.68053699e-02 -8.28219433e-02 
 2.37500000e-08 -2.34847863e-03  8.04373114e-02 -8.27857900e-02 
 2.38500000e-08  2.91948681e-04  8.30400406e-02 -8.27480919e-02 
 2.39500000e-08  2.15040560e-03  8.48592127e-02 -8.27088071e-02 
 2.40500000e-08  3.42146119e-03  8.60894179e-02 -8.26679567e-02 
 2.41500000e-08  4.26907991e-03  8.68946690e-02 -8.26255891e-02 
 2.42500000e-08  4.80382395e-03  8.73855861e-02 -8.25817621e-02 
 2.43500000e-08  5.12055260e-03  8.76570879e-02 -8.25365353e-02 
 2.44500000e-08  5.27690313e-03  8.77668701e-02 -8.24899669e-02 
 2.45500000e-08  5.32768117e-03  8.77697935e-02 -8.24421123e-02 
 2.46500000e-08  5.30076792e-03  8.76937916e-02 -8.23930237e-02 
 2.47500000e-08  5.22861011e-03  8.75713603e-02 -8.23427502e-02 
 2.48500000e-08  5.12263658e-03  8.74139748e-02 -8.22913382e-02 
 2.49500000e-08  5.00291736e-03  8.72417485e-02 -8.22388312e-02 
 2.50500000e-08  4.87189040e-03  8.70571606e-02 -8.21852702e-02 
 2.51500000e-08  4.74283753e-03  8.68735315e-02 -8.21306940e-02 
 2.52500000e-08  4.61337323e-03  8.66885126e-02 -8.20751393e-02 
 2.53500000e-08  4.49310607e-03  8.65117471e-02 -8.20186410e-02 
 2.54500000e-08  4.37714055e-03  8.63383726e-02 -8.19612320e-02 
 2.55500000e-08  4.27313448e-03  8.61760784e-02 -8.19029439e-02 
 2.56500000e-08  4.17495251e-03  8.60187590e-02 -8.18438065e-02 
 2.57500000e-08  4.08924498e-03  8.58730935e-02 -8.17838485e-02 
 2.58500000e-08  4.00932366e-03  8.57324208e-02 -8.17230971e-02 
 2.59500000e-08  3.94133770e-03  8.56029162e-02 -8.16615785e-02 
 2.60000000e-08  3.90808913e-03  8.55386277e-02 -8.16305385e-02 
 2.60100000e-08  3.90258093e-03  8.55268858e-02 -8.16243049e-02 
 2.60300000e-08  3.89082884e-03  8.55026519e-02 -8.16118231e-02 
 2.60700000e-08  3.86820815e-03  8.54549812e-02 -8.15867730e-02 
 2.61500000e-08  3.82579747e-03  8.53621301e-02 -8.15363326e-02 
 2.62500000e-08  3.77968583e-03  8.52523444e-02 -8.14726586e-02 
 2.63500000e-08  3.74008003e-03  8.51483916e-02 -8.14083115e-02 
 2.64500000e-08  3.70665081e-03  8.50499635e-02 -8.13433127e-02 
 2.65500000e-08  3.67849425e-03  8.49561768e-02 -8.12776826e-02 
