 time            v(Vout+)        v(Vout-)        v(vout+)-v(vout-)
 0.00000000e+00  1.41925150e-05  1.64178335e+00 -1.64176915e+00 
 1.00000000e-12  1.41920082e-05  1.64178335e+00 -1.64176915e+00 
 2.00000000e-12  1.41915625e-05  1.64178334e+00 -1.64176915e+00 
 4.00000000e-12  1.41906418e-05  1.64178334e+00 -1.64176915e+00 
 8.00000000e-12  1.41886497e-05  1.64178334e+00 -1.64176915e+00 
 1.60000000e-11  1.41843649e-05  1.64178334e+00 -1.64176915e+00 
 3.20000000e-11  1.41755922e-05  1.64178333e+00 -1.64176915e+00 
 6.40000000e-11  1.41594908e-05  1.64178331e+00 -1.64176915e+00 
 1.28000000e-10  1.41343701e-05  1.64178329e+00 -1.64176915e+00 
 2.28000000e-10  1.41074780e-05  1.64178326e+00 -1.64176915e+00 
 3.28000000e-10  1.40886633e-05  1.64178324e+00 -1.64176915e+00 
 4.28000000e-10  1.40741226e-05  1.64178323e+00 -1.64176915e+00 
 5.28000000e-10  1.40623344e-05  1.64178321e+00 -1.64176915e+00 
 6.28000000e-10  1.40525730e-05  1.64178320e+00 -1.64176915e+00 
 7.28000000e-10  1.40443733e-05  1.64178320e+00 -1.64176915e+00 
 8.28000000e-10  1.40374365e-05  1.64178319e+00 -1.64176915e+00 
 9.28000000e-10  1.40314895e-05  1.64178318e+00 -1.64176915e+00 
 1.00000000e-09  1.40277029e-05  1.64178318e+00 -1.64176915e+00 
 1.01000000e-09  1.41465843e-05  1.64178330e+00 -1.64176915e+00 
 1.03000000e-09  1.40287470e-05  1.64178318e+00 -1.64176915e+00 
 1.07000000e-09  1.39417346e-05  1.64178309e+00 -1.64176915e+00 
 1.15000000e-09  1.40804649e-05  1.64178323e+00 -1.64176915e+00 
 1.25000000e-09  1.39687877e-05  1.64178312e+00 -1.64176915e+00 
 1.35000000e-09  1.40762832e-05  1.64178323e+00 -1.64176915e+00 
 1.45000000e-09  1.41709126e-05  1.64178332e+00 -1.64176915e+00 
 1.55000000e-09  1.38059329e-05  1.64178295e+00 -1.64176915e+00 
 1.65000000e-09  1.50750153e-05  1.64178422e+00 -1.64176915e+00 
 1.75000000e-09  1.48039122e-05  1.64178395e+00 -1.64176915e+00 
 1.85000000e-09  1.05858396e-05  1.64177973e+00 -1.64176915e+00 
 1.95000000e-09 -6.37357448e-06  1.64176277e+00 -1.64176914e+00 
 2.00000000e-09 -4.72132521e-05  1.64172192e+00 -1.64176914e+00 
 2.01000000e-09 -5.77283832e-05  1.64171141e+00 -1.64176914e+00 
 2.03000000e-09 -6.58436462e-05  1.64170329e+00 -1.64176913e+00 
 2.07000000e-09  1.13581184e-04  1.64188270e+00 -1.64176912e+00 
 2.15000000e-09  2.01059696e-03  1.64377986e+00 -1.64176926e+00 
 2.25000000e-09  5.58228272e-03  1.64735279e+00 -1.64177051e+00 
 2.35000000e-09  8.15664359e-03  1.64993083e+00 -1.64177419e+00 
 2.45000000e-09  1.01086186e-02  1.65189002e+00 -1.64178140e+00 
 2.55000000e-09  1.12082874e-02  1.65300113e+00 -1.64179285e+00 
 2.65000000e-09  1.12219318e-02  1.65303071e+00 -1.64180878e+00 
 2.75000000e-09  1.03144725e-02  1.65214366e+00 -1.64182919e+00 
 2.85000000e-09  7.02742737e-03  1.64888161e+00 -1.64185419e+00 
 2.95000000e-09 -8.79621459e-04  1.64100523e+00 -1.64188486e+00 
 3.05000000e-09  5.28629922e-03  1.64720818e+00 -1.64192188e+00 
 3.15000000e-09  2.57502174e-02  1.66771180e+00 -1.64196158e+00 
 3.25000000e-09  4.04523977e-02  1.68244863e+00 -1.64199623e+00 
 3.35000000e-09  4.65606087e-02  1.68857983e+00 -1.64201922e+00 
 3.45000000e-09  5.00665637e-02  1.69209392e+00 -1.64202736e+00 
 3.55000000e-09  5.27208873e-02  1.69474023e+00 -1.64201935e+00 
 3.65000000e-09  5.48243114e-02  1.69681885e+00 -1.64199454e+00 
 3.75000000e-09  5.65576161e-02  1.69851023e+00 -1.64195262e+00 
 3.85000000e-09  5.79997085e-02  1.69989320e+00 -1.64189349e+00 
 3.95000000e-09  5.92321111e-02  1.70104932e+00 -1.64181721e+00 
 4.05000000e-09  6.02836174e-02  1.70200758e+00 -1.64172396e+00 
 4.15000000e-09  6.12029774e-02  1.70281699e+00 -1.64161401e+00 
 4.25000000e-09  6.19996233e-02  1.70348731e+00 -1.64148769e+00 
 4.35000000e-09  6.27079300e-02  1.70405331e+00 -1.64134538e+00 
 4.45000000e-09  6.33280852e-02  1.70451558e+00 -1.64118750e+00 
 4.55000000e-09  6.38870396e-02  1.70490155e+00 -1.64101451e+00 
 4.65000000e-09  6.43800191e-02  1.70520689e+00 -1.64082687e+00 
 4.75000000e-09  6.48296938e-02  1.70545478e+00 -1.64062508e+00 
 4.85000000e-09  6.52284207e-02  1.70563806e+00 -1.64040964e+00 
 4.95000000e-09  6.55961910e-02  1.70577723e+00 -1.64018104e+00 
 5.05000000e-09  6.59236176e-02  1.70586341e+00 -1.63993979e+00 
 5.15000000e-09  6.62289032e-02  1.70591531e+00 -1.63968641e+00 
 5.25000000e-09  6.65015643e-02  1.70592294e+00 -1.63942138e+00 
 5.35000000e-09  6.67585459e-02  1.70590376e+00 -1.63914521e+00 
 5.45000000e-09  6.69886612e-02  1.70584706e+00 -1.63885840e+00 
 5.55000000e-09  6.72079304e-02  1.70576935e+00 -1.63856142e+00 
 5.65000000e-09  6.74047136e-02  1.70565946e+00 -1.63825474e+00 
 5.75000000e-09  6.75943253e-02  1.70553318e+00 -1.63793885e+00 
 5.85000000e-09  6.77648364e-02  1.70537903e+00 -1.63761419e+00 
 5.95000000e-09  6.79310051e-02  1.70521221e+00 -1.63728121e+00 
 6.00000000e-09  6.80053435e-02  1.70511706e+00 -1.63711172e+00 
 6.01000000e-09  6.80219773e-02  1.70509953e+00 -1.63707755e+00 
 6.03000000e-09  6.80523415e-02  1.70506140e+00 -1.63700906e+00 
 6.07000000e-09  6.81118916e-02  1.70498308e+00 -1.63687118e+00 
 6.15000000e-09  6.82264746e-02  1.70481840e+00 -1.63659193e+00 
 6.25000000e-09  6.83630817e-02  1.70459963e+00 -1.63623655e+00 
 6.35000000e-09  6.84925677e-02  1.70436708e+00 -1.63587451e+00 
 6.45000000e-09  6.86160027e-02  1.70412222e+00 -1.63550622e+00 
 6.55000000e-09  6.87338423e-02  1.70386588e+00 -1.63513203e+00 
 6.65000000e-09  6.88468387e-02  1.70359917e+00 -1.63475233e+00 
 6.75000000e-09  6.89553889e-02  1.70332284e+00 -1.63436745e+00 
 6.85000000e-09  6.90600579e-02  1.70303781e+00 -1.63397775e+00 
 6.95000000e-09  6.91613373e-02  1.70274488e+00 -1.63358355e+00 
 7.00000000e-09  6.92107143e-02  1.70259556e+00 -1.63338485e+00 
 7.01000000e-09  6.92206411e-02  1.70256561e+00 -1.63334497e+00 
 7.03000000e-09  6.92400602e-02  1.70250518e+00 -1.63326512e+00 
 7.07000000e-09  6.92786979e-02  1.70238367e+00 -1.63310497e+00 
 7.15000000e-09  6.93550257e-02  1.70213789e+00 -1.63278286e+00 
 7.25000000e-09  6.94480521e-02  1.70182508e+00 -1.63237703e+00 
 7.35000000e-09  6.95391578e-02  1.70150707e+00 -1.63196791e+00 
 7.45000000e-09  6.96282659e-02  1.70118404e+00 -1.63155578e+00 
 7.55000000e-09  6.97158825e-02  1.70085677e+00 -1.63114089e+00 
 7.65000000e-09  6.98019867e-02  1.70052549e+00 -1.63072350e+00 
 7.75000000e-09  6.98869517e-02  1.70019082e+00 -1.63030387e+00 
 7.85000000e-09  6.99707905e-02  1.69985301e+00 -1.62988221e+00 
 7.95000000e-09  7.00537815e-02  1.69951255e+00 -1.62945877e+00 
 8.05000000e-09  7.01359543e-02  1.69916971e+00 -1.62903375e+00 
 8.15000000e-09  7.02175182e-02  1.69882488e+00 -1.62860737e+00 
 8.25000000e-09  7.02985098e-02  1.69847832e+00 -1.62817981e+00 
 8.35000000e-09  7.03790869e-02  1.69813037e+00 -1.62775128e+00 
 8.45000000e-09  7.04592873e-02  1.69778125e+00 -1.62732196e+00 
 8.55000000e-09  7.05392304e-02  1.69743124e+00 -1.62689201e+00 
 8.65000000e-09  7.06189518e-02  1.69708057e+00 -1.62646162e+00 
 8.75000000e-09  7.06985419e-02  1.69672947e+00 -1.62603093e+00 
 8.85000000e-09  7.07780322e-02  1.69637813e+00 -1.62560010e+00 
 8.95000000e-09  7.08574911e-02  1.69602676e+00 -1.62516927e+00 
 9.05000000e-09  7.09369454e-02  1.69567554e+00 -1.62473859e+00 
 9.15000000e-09  7.10164461e-02  1.69532463e+00 -1.62430819e+00 
 9.25000000e-09  7.10960152e-02  1.69497420e+00 -1.62387819e+00 
 9.35000000e-09  7.11756905e-02  1.69462440e+00 -1.62344871e+00 
 9.45000000e-09  7.12554893e-02  1.69427535e+00 -1.62301987e+00 
 9.55000000e-09  7.13354389e-02  1.69392721e+00 -1.62259177e+00 
 9.65000000e-09  7.14155524e-02  1.69358007e+00 -1.62216452e+00 
 9.75000000e-09  7.14958485e-02  1.69323406e+00 -1.62173822e+00 
 9.85000000e-09  7.15763368e-02  1.69288929e+00 -1.62131295e+00 
 9.95000000e-09  7.16570295e-02  1.69254584e+00 -1.62088881e+00 
 1.00500000e-08  7.17379324e-02  1.69220382e+00 -1.62046588e+00 
 1.01500000e-08  7.18190529e-02  1.69186330e+00 -1.62004424e+00 
 1.02500000e-08  7.19003939e-02  1.69152436e+00 -1.61962396e+00 
 1.03500000e-08  7.19819585e-02  1.69118708e+00 -1.61920512e+00 
 1.04500000e-08  7.20637473e-02  1.69085152e+00 -1.61878777e+00 
 1.05500000e-08  7.21457601e-02  1.69051774e+00 -1.61837198e+00 
 1.06500000e-08  7.22279954e-02  1.69018581e+00 -1.61795781e+00 
 1.07500000e-08  7.23104504e-02  1.68985577e+00 -1.61754532e+00 
 1.08500000e-08  7.23931221e-02  1.68952767e+00 -1.61713454e+00 
 1.09500000e-08  7.24760057e-02  1.68920155e+00 -1.61672554e+00 
 1.10000000e-08  7.25175258e-02  1.68903925e+00 -1.61652172e+00 
 1.10100000e-08  7.25259449e-02  1.68900697e+00 -1.61648102e+00 
 1.10300000e-08  7.25424665e-02  1.68894212e+00 -1.61639966e+00 
 1.10700000e-08  7.25756673e-02  1.68881282e+00 -1.61623715e+00 
 1.11500000e-08  7.26424437e-02  1.68855549e+00 -1.61591304e+00 
 1.12500000e-08  7.27258322e-02  1.68823545e+00 -1.61550962e+00 
 1.13500000e-08  7.28095995e-02  1.68791772e+00 -1.61510812e+00 
 1.14500000e-08  7.28934600e-02  1.68760206e+00 -1.61470860e+00 
 1.15500000e-08  7.29775757e-02  1.68728865e+00 -1.61431107e+00 
 1.16500000e-08  7.30626273e-02  1.68697819e+00 -1.61391557e+00 
 1.17500000e-08  7.31475368e-02  1.68666965e+00 -1.61352212e+00 
 1.18500000e-08  7.32274411e-02  1.68635818e+00 -1.61313074e+00 
 1.19500000e-08  7.32839229e-02  1.68602538e+00 -1.61274145e+00 
 1.20000000e-08  7.32716074e-02  1.68581921e+00 -1.61254760e+00 
 1.20100000e-08  7.32662532e-02  1.68577515e+00 -1.61250890e+00 
 1.20300000e-08  7.32731267e-02  1.68570467e+00 -1.61243155e+00 
 1.20700000e-08  7.35313170e-02  1.68580841e+00 -1.61227709e+00 
 1.21500000e-08  7.57533250e-02  1.68772271e+00 -1.61196939e+00 
 1.22500000e-08  7.96838174e-02  1.69127172e+00 -1.61158790e+00 
 1.23500000e-08  8.28014311e-02  1.69401272e+00 -1.61121129e+00 
 1.24500000e-08  8.55121579e-02  1.69635305e+00 -1.61084089e+00 
 1.25500000e-08  8.79737713e-02  1.69845149e+00 -1.61047772e+00 
 1.26500000e-08  9.02723782e-02  1.70039500e+00 -1.61012262e+00 
 1.27500000e-08  9.24108076e-02  1.70218710e+00 -1.60977629e+00 
 1.28500000e-08  9.43440623e-02  1.70378335e+00 -1.60943929e+00 
 1.29500000e-08  9.60002367e-02  1.70511230e+00 -1.60911206e+00 
 1.30500000e-08  9.72190664e-02  1.70601394e+00 -1.60879488e+00 
 1.31500000e-08  9.78426189e-02  1.70633042e+00 -1.60848780e+00 
 1.32500000e-08  9.79514645e-02  1.70614217e+00 -1.60819071e+00 
 1.33500000e-08  9.75467962e-02  1.70545018e+00 -1.60790339e+00 
 1.34500000e-08  9.63503118e-02  1.70397597e+00 -1.60762566e+00 
 1.35500000e-08  9.40204234e-02  1.70137798e+00 -1.60735756e+00 
 1.36500000e-08  8.83762745e-02  1.69547602e+00 -1.60709975e+00 
 1.37500000e-08  7.93575446e-02  1.68621163e+00 -1.60685408e+00 
 1.38500000e-08  7.83180008e-02  1.68494048e+00 -1.60662248e+00 
 1.39500000e-08  9.71786022e-02  1.70358146e+00 -1.60640285e+00 
 1.40500000e-08  1.28865276e-01  1.73505140e+00 -1.60618612e+00 
 1.41500000e-08  1.55799044e-01  1.76175793e+00 -1.60595888e+00 
 1.42500000e-08  1.71568320e-01  1.77727770e+00 -1.60570938e+00 
 1.43500000e-08  1.80155249e-01  1.78558581e+00 -1.60543056e+00 
 1.44500000e-08  1.85413261e-01  1.79053240e+00 -1.60511914e+00 
 1.45500000e-08  1.89165902e-01  1.79393977e+00 -1.60477387e+00 
 1.46500000e-08  1.92140296e-01  1.79653471e+00 -1.60439442e+00 
 1.47500000e-08  1.94631253e-01  1.79861216e+00 -1.60398091e+00 
 1.48500000e-08  1.96769522e-01  1.80030328e+00 -1.60353376e+00 
 1.49500000e-08  1.98632969e-01  1.80168651e+00 -1.60305354e+00 
 1.50500000e-08  2.00268839e-01  1.80280981e+00 -1.60254097e+00 
 1.51500000e-08  2.01717800e-01  1.80371466e+00 -1.60199686e+00 
 1.52500000e-08  2.03006258e-01  1.80442834e+00 -1.60142208e+00 
 1.53500000e-08  2.04161180e-01  1.80497877e+00 -1.60081759e+00 
 1.54500000e-08  2.05198949e-01  1.80538331e+00 -1.60018436e+00 
 1.55500000e-08  2.06138860e-01  1.80566225e+00 -1.59952339e+00 
 1.56500000e-08  2.06991286e-01  1.80582700e+00 -1.59883571e+00 
 1.57500000e-08  2.07770707e-01  1.80589306e+00 -1.59812235e+00 
 1.58500000e-08  2.08483631e-01  1.80586797e+00 -1.59738434e+00 
 1.59500000e-08  2.09141363e-01  1.80576407e+00 -1.59662271e+00 
 1.60000000e-08  2.09449837e-01  1.80568317e+00 -1.59623333e+00 
 1.60100000e-08  2.09510239e-01  1.80566491e+00 -1.59615468e+00 
 1.60300000e-08  2.09629823e-01  1.80562675e+00 -1.59599693e+00 
 1.60700000e-08  2.09863685e-01  1.80554252e+00 -1.59567884e+00 
 1.61500000e-08  2.10310965e-01  1.80534345e+00 -1.59503249e+00 
 1.62500000e-08  2.10836247e-01  1.80504236e+00 -1.59420611e+00 
 1.63500000e-08  2.11327383e-01  1.80468753e+00 -1.59336015e+00 
 1.64500000e-08  2.11788696e-01  1.80428424e+00 -1.59249554e+00 
 1.65500000e-08  2.12223342e-01  1.80383659e+00 -1.59161325e+00 
 1.66500000e-08  2.12634628e-01  1.80334881e+00 -1.59071419e+00 
 1.67500000e-08  2.13024905e-01  1.80282416e+00 -1.58979925e+00 
 1.68500000e-08  2.13396714e-01  1.80226604e+00 -1.58886932e+00 
 1.69500000e-08  2.13752052e-01  1.80167730e+00 -1.58792525e+00 
 1.70000000e-08  2.13924035e-01  1.80137218e+00 -1.58744815e+00 
 1.70100000e-08  2.13958069e-01  1.80131034e+00 -1.58735227e+00 
 1.70300000e-08  2.14025535e-01  1.80118580e+00 -1.58716026e+00 
 1.70700000e-08  2.14159009e-01  1.80093374e+00 -1.58677474e+00 
 1.71500000e-08  2.14420285e-01  1.80041811e+00 -1.58599783e+00 
 1.72500000e-08  2.14736350e-01  1.79975256e+00 -1.58501621e+00 
 1.73500000e-08  2.15042288e-01  1.79906590e+00 -1.58402361e+00 
 1.74500000e-08  2.15338930e-01  1.79835970e+00 -1.58302077e+00 
 1.75500000e-08  2.15627545e-01  1.79763593e+00 -1.58200839e+00 
 1.76500000e-08  2.15908830e-01  1.79689598e+00 -1.58098714e+00 
 1.77500000e-08  2.16183768e-01  1.79614147e+00 -1.57995771e+00 
 1.78500000e-08  2.16452943e-01  1.79537365e+00 -1.57892071e+00 
 1.79500000e-08  2.16717120e-01  1.79459388e+00 -1.57787676e+00 
 1.80500000e-08  2.16976787e-01  1.79380324e+00 -1.57682645e+00 
 1.81500000e-08  2.17232546e-01  1.79300290e+00 -1.57577036e+00 
 1.82500000e-08  2.17484801e-01  1.79219382e+00 -1.57470902e+00 
 1.83500000e-08  2.17734028e-01  1.79137700e+00 -1.57364297e+00 
 1.84500000e-08  2.17980560e-01  1.79055327e+00 -1.57257271e+00 
 1.85500000e-08  2.18224775e-01  1.78972350e+00 -1.57149872e+00 
 1.86500000e-08  2.18466947e-01  1.78888843e+00 -1.57042148e+00 
 1.87500000e-08  2.18707377e-01  1.78804881e+00 -1.56934143e+00 
 1.88500000e-08  2.18946290e-01  1.78720530e+00 -1.56825901e+00 
 1.89500000e-08  2.19183925e-01  1.78635854e+00 -1.56717461e+00 
 1.90500000e-08  2.19420467e-01  1.78550911e+00 -1.56608865e+00 
 1.91500000e-08  2.19656106e-01  1.78465759e+00 -1.56500148e+00 
 1.92500000e-08  2.19890991e-01  1.78380447e+00 -1.56391348e+00 
 1.93500000e-08  2.20125273e-01  1.78295027e+00 -1.56282500e+00 
 1.94500000e-08  2.20359074e-01  1.78209542e+00 -1.56173635e+00 
 1.95500000e-08  2.20592512e-01  1.78124037e+00 -1.56064785e+00 
 1.96500000e-08  2.20825686e-01  1.78038550e+00 -1.55955981e+00 
 1.97500000e-08  2.21058687e-01  1.77953121e+00 -1.55847252e+00 
 1.98500000e-08  2.21291594e-01  1.77867783e+00 -1.55738624e+00 
 1.99500000e-08  2.21524479e-01  1.77782571e+00 -1.55630123e+00 
 2.00500000e-08  2.21757402e-01  1.77697515e+00 -1.55521775e+00 
 2.01500000e-08  2.21990420e-01  1.77612644e+00 -1.55413602e+00 
 2.02500000e-08  2.22223577e-01  1.77527985e+00 -1.55305627e+00 
 2.03500000e-08  2.22456917e-01  1.77443564e+00 -1.55197872e+00 
 2.04500000e-08  2.22690474e-01  1.77359404e+00 -1.55090356e+00 
 2.05500000e-08  2.22924277e-01  1.77275527e+00 -1.54983099e+00 
 2.06500000e-08  2.23158353e-01  1.77191954e+00 -1.54876119e+00 
 2.07500000e-08  2.23392722e-01  1.77108704e+00 -1.54769432e+00 
 2.08500000e-08  2.23627401e-01  1.77025795e+00 -1.54663055e+00 
 2.09500000e-08  2.23862403e-01  1.76943243e+00 -1.54557003e+00 
 2.10000000e-08  2.23980029e-01  1.76902106e+00 -1.54504103e+00 
 2.10100000e-08  2.24003668e-01  1.76893902e+00 -1.54493535e+00 
 2.10300000e-08  2.24050651e-01  1.76877472e+00 -1.54472406e+00 
 2.10700000e-08  2.24144779e-01  1.76844669e+00 -1.54430191e+00 
 2.11500000e-08  2.24333466e-01  1.76779278e+00 -1.54345932e+00 
 2.12500000e-08  2.24569397e-01  1.76697878e+00 -1.54240938e+00 
 2.13500000e-08  2.24805858e-01  1.76616908e+00 -1.54136322e+00 
 2.14500000e-08  2.25042611e-01  1.76536356e+00 -1.54032095e+00 
 2.15500000e-08  2.25279731e-01  1.76456240e+00 -1.53928267e+00 
 2.16500000e-08  2.25517716e-01  1.76376620e+00 -1.53824849e+00 
 2.17500000e-08  2.25757179e-01  1.76297566e+00 -1.53721848e+00 
 2.18500000e-08  2.25987612e-01  1.76218035e+00 -1.53619274e+00 
 2.19500000e-08  2.26180073e-01  1.76135141e+00 -1.53517134e+00 
 2.20000000e-08  2.26233767e-01  1.76089605e+00 -1.53466228e+00 
 2.20100000e-08  2.26249930e-01  1.76081055e+00 -1.53456062e+00 
 2.20300000e-08  2.26324796e-01  1.76068219e+00 -1.53435740e+00 
 2.20700000e-08  2.26909980e-01  1.76086146e+00 -1.53395148e+00 
 2.21500000e-08  2.30101088e-01  1.76324321e+00 -1.53314213e+00 
 2.22500000e-08  2.34756049e-01  1.76689225e+00 -1.53213620e+00 
 2.23500000e-08  2.38402803e-01  1.76954117e+00 -1.53113837e+00 
 2.24500000e-08  2.41700088e-01  1.77185025e+00 -1.53015016e+00 
 2.25500000e-08  2.44823860e-01  1.77399665e+00 -1.52917279e+00 
 2.26500000e-08  2.47799469e-01  1.77600674e+00 -1.52820727e+00 
 2.27500000e-08  2.50608252e-01  1.77786274e+00 -1.52725448e+00 
 2.28500000e-08  2.53251991e-01  1.77956717e+00 -1.52631518e+00 
 2.29500000e-08  2.55705235e-01  1.78109520e+00 -1.52538997e+00 
 2.30500000e-08  2.57900866e-01  1.78238020e+00 -1.52447934e+00 
 2.31500000e-08  2.59741676e-01  1.78332530e+00 -1.52358363e+00 
 2.32500000e-08  2.61076523e-01  1.78377952e+00 -1.52270300e+00 
 2.33500000e-08  2.61833876e-01  1.78367130e+00 -1.52183742e+00 
 2.34500000e-08  2.62066474e-01  1.78305317e+00 -1.52098670e+00 
 2.35500000e-08  2.61771764e-01  1.78192231e+00 -1.52015055e+00 
 2.36500000e-08  2.60714151e-01  1.78004289e+00 -1.51932874e+00 
 2.37500000e-08  2.58601290e-01  1.77712248e+00 -1.51852119e+00 
 2.38500000e-08  2.53898060e-01  1.77162638e+00 -1.51772832e+00 
 2.39500000e-08  2.45303537e-01  1.76225516e+00 -1.51695162e+00 
 2.40500000e-08  2.39376492e-01  1.75556977e+00 -1.51619328e+00 
 2.41500000e-08  2.49140098e-01  1.76459332e+00 -1.51545322e+00 
 2.42500000e-08  2.79036969e-01  1.79376191e+00 -1.51472494e+00 
 2.43500000e-08  3.15021140e-01  1.82901609e+00 -1.51399495e+00 
 2.44500000e-08  3.41961710e-01  1.85520949e+00 -1.51324778e+00 
 2.45500000e-08  3.57554863e-01  1.87002645e+00 -1.51247158e+00 
 2.46500000e-08  3.66341048e-01  1.87800074e+00 -1.51165970e+00 
 2.47500000e-08  3.71843556e-01  1.88265275e+00 -1.51080919e+00 
 2.48500000e-08  3.75778347e-01  1.88569744e+00 -1.50991909e+00 
 2.49500000e-08  3.78894559e-01  1.88788391e+00 -1.50898935e+00 
 2.50500000e-08  3.81507758e-01  1.88952818e+00 -1.50802042e+00 
 2.51500000e-08  3.83766231e-01  1.89077923e+00 -1.50701300e+00 
 2.52500000e-08  3.85746306e-01  1.89171428e+00 -1.50596798e+00 
 2.53500000e-08  3.87500119e-01  1.89238646e+00 -1.50488634e+00 
 2.54500000e-08  3.89063088e-01  1.89283228e+00 -1.50376919e+00 
 2.55500000e-08  3.90466273e-01  1.89308396e+00 -1.50261769e+00 
 2.56500000e-08  3.91732181e-01  1.89316520e+00 -1.50143302e+00 
 2.57500000e-08  3.92882410e-01  1.89309884e+00 -1.50021643e+00 
 2.58500000e-08  3.93932170e-01  1.89290133e+00 -1.49896916e+00 
 2.59500000e-08  3.94897088e-01  1.89258957e+00 -1.49769248e+00 
 2.60000000e-08  3.95350359e-01  1.89239382e+00 -1.49704346e+00 
 2.60100000e-08  3.95438673e-01  1.89235136e+00 -1.49691268e+00 
 2.60300000e-08  3.95614019e-01  1.89226461e+00 -1.49665059e+00 
 2.60700000e-08  3.95956999e-01  1.89208016e+00 -1.49612316e+00 
 2.61500000e-08  3.96613696e-01  1.89166932e+00 -1.49505562e+00 
 2.62500000e-08  3.97386069e-01  1.89108429e+00 -1.49369822e+00 
 2.63500000e-08  3.98110523e-01  1.89042689e+00 -1.49231637e+00 
 2.64500000e-08  3.98793661e-01  1.88970494e+00 -1.49091128e+00 
 2.65500000e-08  3.99440566e-01  1.88892471e+00 -1.48948414e+00 
