 time            v(Vout+)        v(Vout-)        v(vout+)-v(vout-)
 0.00000000e+00  3.54764251e-07  9.18500508e-02 -9.18496961e-02 
 1.00000000e-12  3.54839560e-07  9.18500509e-02 -9.18496961e-02 
 2.00000000e-12  3.54885533e-07  9.18500509e-02 -9.18496961e-02 
 4.00000000e-12  3.54949254e-07  9.18500510e-02 -9.18496961e-02 
 8.00000000e-12  3.54968359e-07  9.18500510e-02 -9.18496961e-02 
 1.60000000e-11  3.54875666e-07  9.18500509e-02 -9.18496961e-02 
 3.20000000e-11  3.54732973e-07  9.18500508e-02 -9.18496961e-02 
 6.40000000e-11  3.54719435e-07  9.18500508e-02 -9.18496961e-02 
 1.28000000e-10  3.54778674e-07  9.18500508e-02 -9.18496961e-02 
 2.28000000e-10  3.54779941e-07  9.18500508e-02 -9.18496961e-02 
 3.28000000e-10  3.54771678e-07  9.18500508e-02 -9.18496961e-02 
 4.28000000e-10  3.54753816e-07  9.18500508e-02 -9.18496961e-02 
 5.28000000e-10  3.54737255e-07  9.18500508e-02 -9.18496961e-02 
 6.28000000e-10  3.54717189e-07  9.18500508e-02 -9.18496961e-02 
 7.28000000e-10  3.54698565e-07  9.18500508e-02 -9.18496961e-02 
 8.28000000e-10  3.54678997e-07  9.18500507e-02 -9.18496961e-02 
 9.28000000e-10  3.54661572e-07  9.18500507e-02 -9.18496961e-02 
 1.00000000e-09  3.54648961e-07  9.18500507e-02 -9.18496961e-02 
 1.01000000e-09  5.81690315e-07  9.18502778e-02 -9.18496961e-02 
 1.03000000e-09  3.56493985e-07  9.18500526e-02 -9.18496961e-02 
 1.07000000e-09  1.64144949e-07  9.18498602e-02 -9.18496961e-02 
 1.15000000e-09  4.78931782e-07  9.18501750e-02 -9.18496961e-02 
 1.25000000e-09  2.66484643e-07  9.18499625e-02 -9.18496961e-02 
 1.35000000e-09  4.61800564e-07  9.18501579e-02 -9.18496961e-02 
 1.45000000e-09  5.84430997e-07  9.18502805e-02 -9.18496961e-02 
 1.55000000e-09 -2.09164543e-07  9.18494869e-02 -9.18496961e-02 
 1.65000000e-09  1.81588542e-06  9.18515120e-02 -9.18496961e-02 
 1.75000000e-09  8.17861139e-07  9.18505141e-02 -9.18496962e-02 
 1.85000000e-09 -7.25461012e-06  9.18424415e-02 -9.18496961e-02 
 1.95000000e-09 -5.41690810e-05  9.17955243e-02 -9.18496933e-02 
 2.00000000e-09 -8.96360055e-05  9.17600534e-02 -9.18496895e-02 
 2.01000000e-09 -6.18606916e-05  9.17878277e-02 -9.18496883e-02 
 2.03000000e-09  1.01963349e-04  9.19516497e-02 -9.18496863e-02 
 2.07000000e-09  1.43827107e-03  9.32879649e-02 -9.18496938e-02 
 2.15000000e-09  6.80692471e-03  9.86568655e-02 -9.18499408e-02 
 2.25000000e-09  9.56744856e-03  1.01418503e-01 -9.18510546e-02 
 2.35000000e-09  7.95069744e-03  9.98039062e-02 -9.18532088e-02 
 2.45000000e-09  3.33822636e-03  9.51945519e-02 -9.18563255e-02 
 2.55000000e-09 -5.14278122e-03  8.67177789e-02 -9.18605601e-02 
 2.65000000e-09 -1.05788559e-02  8.12873882e-02 -9.18662441e-02 
 2.75000000e-09 -7.41798202e-03  8.44552117e-02 -9.18731937e-02 
 2.85000000e-09 -5.13761147e-03  8.67430111e-02 -9.18806225e-02 
 2.95000000e-09 -3.50556477e-03  8.83823072e-02 -9.18878720e-02 
 3.05000000e-09 -2.32465732e-03  8.95699985e-02 -9.18946559e-02 
 3.15000000e-09 -1.47700889e-03  9.04238466e-02 -9.19008555e-02 
 3.25000000e-09 -8.61529494e-04  9.10448994e-02 -9.19064289e-02 
 3.35000000e-09 -4.25805396e-04  9.14855634e-02 -9.19113688e-02 
 3.45000000e-09 -1.12568110e-04  9.18031156e-02 -9.19156837e-02 
 3.55000000e-09  1.00705003e-04  9.20200937e-02 -9.19193887e-02 
 3.65000000e-09  2.50080415e-04  9.21725818e-02 -9.19225014e-02 
 3.75000000e-09  3.43004215e-04  9.22680445e-02 -9.19250403e-02 
 3.85000000e-09  4.04313882e-04  9.23313373e-02 -9.19270234e-02 
 3.95000000e-09  4.33344187e-04  9.23618126e-02 -9.19284684e-02 
 4.05000000e-09  4.48686633e-04  9.23780786e-02 -9.19293919e-02 
 4.15000000e-09  4.45196763e-04  9.23750070e-02 -9.19298102e-02 
 4.25000000e-09  4.37909619e-04  9.23676482e-02 -9.19297386e-02 
 4.35000000e-09  4.19200026e-04  9.23483917e-02 -9.19291916e-02 
 4.45000000e-09  4.02051963e-04  9.23302354e-02 -9.19281835e-02 
 4.55000000e-09  3.77485000e-04  9.23042125e-02 -9.19267275e-02 
 4.65000000e-09  3.57287492e-04  9.22821240e-02 -9.19248365e-02 
 4.75000000e-09  3.31763350e-04  9.22542863e-02 -9.19225229e-02 
 4.85000000e-09  3.11992602e-04  9.22317912e-02 -9.19197986e-02 
 4.95000000e-09  2.87927093e-04  9.22046021e-02 -9.19166750e-02 
 5.05000000e-09  2.70216898e-04  9.21833799e-02 -9.19131630e-02 
 5.15000000e-09  2.48666511e-04  9.21579399e-02 -9.19092734e-02 
 5.25000000e-09  2.33654762e-04  9.21386711e-02 -9.19050163e-02 
 5.35000000e-09  2.14952902e-04  9.21153546e-02 -9.19004017e-02 
 5.45000000e-09  2.02757984e-04  9.20981970e-02 -9.18954390e-02 
 5.55000000e-09  1.86870801e-04  9.20770084e-02 -9.18901376e-02 
 5.65000000e-09  1.77356565e-04  9.20618630e-02 -9.18845064e-02 
 5.75000000e-09  1.64079139e-04  9.20426332e-02 -9.18785541e-02 
 5.85000000e-09  1.56999306e-04  9.20292884e-02 -9.18722891e-02 
 5.95000000e-09  1.46061155e-04  9.20117806e-02 -9.18657195e-02 
 6.00000000e-09  1.44705400e-04  9.20070281e-02 -9.18623227e-02 
 6.01000000e-09  1.42413382e-04  9.20040464e-02 -9.18616330e-02 
 6.03000000e-09  1.41163466e-04  9.20014114e-02 -9.18602479e-02 
 6.07000000e-09  1.38898281e-04  9.19963412e-02 -9.18574430e-02 
 6.15000000e-09  1.33440393e-04  9.19851362e-02 -9.18516958e-02 
 6.25000000e-09  1.28206621e-04  9.19724657e-02 -9.18442591e-02 
 6.35000000e-09  1.23362430e-04  9.19599106e-02 -9.18365482e-02 
 6.45000000e-09  1.19606804e-04  9.19481768e-02 -9.18285700e-02 
 6.55000000e-09  1.16051039e-04  9.19363825e-02 -9.18203314e-02 
 6.65000000e-09  1.13679800e-04  9.19255189e-02 -9.18118391e-02 
 6.75000000e-09  1.11844973e-04  9.19149445e-02 -9.18030995e-02 
 6.85000000e-09  1.10896933e-04  9.19050159e-02 -9.17941189e-02 
 6.95000000e-09  1.10356953e-04  9.18952606e-02 -9.17849036e-02 
 7.00000000e-09  1.10226343e-04  9.18904360e-02 -9.17802096e-02 
 7.01000000e-09  1.10422219e-04  9.18896851e-02 -9.17792629e-02 
 7.03000000e-09  1.10198078e-04  9.18875630e-02 -9.17773649e-02 
 7.07000000e-09  1.10043167e-04  9.18835854e-02 -9.17735422e-02 
 7.15000000e-09  1.10623350e-04  9.18764142e-02 -9.17657908e-02 
 7.25000000e-09  1.11237890e-04  9.18671445e-02 -9.17559066e-02 
 7.35000000e-09  1.12587652e-04  9.18583982e-02 -9.17458106e-02 
 7.45000000e-09  1.14051609e-04  9.18495598e-02 -9.17355082e-02 
 7.55000000e-09  1.16084867e-04  9.18410896e-02 -9.17250047e-02 
 7.65000000e-09  1.18282283e-04  9.18325876e-02 -9.17143053e-02 
 7.75000000e-09  1.20933691e-04  9.18243486e-02 -9.17034149e-02 
 7.85000000e-09  1.23765280e-04  9.18161037e-02 -9.16923384e-02 
 7.95000000e-09  1.26967839e-04  9.18080485e-02 -9.16810806e-02 
 8.05000000e-09  1.30352239e-04  9.17999984e-02 -9.16696461e-02 
 8.15000000e-09  1.34045043e-04  9.17920846e-02 -9.16580396e-02 
 8.25000000e-09  1.37913848e-04  9.17841791e-02 -9.16462653e-02 
 8.35000000e-09  1.42043055e-04  9.17763706e-02 -9.16343276e-02 
 8.45000000e-09  1.46339142e-04  9.17685699e-02 -9.16222307e-02 
 8.55000000e-09  1.50857664e-04  9.17608366e-02 -9.16099789e-02 
 8.65000000e-09  1.55532417e-04  9.17531084e-02 -9.15975760e-02 
 8.75000000e-09  1.60399264e-04  9.17454254e-02 -9.15850261e-02 
 8.85000000e-09  1.65411261e-04  9.17377442e-02 -9.15723329e-02 
 8.95000000e-09  1.70590672e-04  9.17300910e-02 -9.15595003e-02 
 9.05000000e-09  1.75904354e-04  9.17224362e-02 -9.15465319e-02 
 9.15000000e-09  1.81365182e-04  9.17147964e-02 -9.15334312e-02 
 9.25000000e-09  1.86949847e-04  9.17071517e-02 -9.15202019e-02 
 9.35000000e-09  1.92664829e-04  9.16995120e-02 -9.15068472e-02 
 9.45000000e-09  1.98493834e-04  9.16918644e-02 -9.14933706e-02 
 9.55000000e-09  2.04439033e-04  9.16842143e-02 -9.14797752e-02 
 9.65000000e-09  2.10489167e-04  9.16765536e-02 -9.14660644e-02 
 9.75000000e-09  2.16643504e-04  9.16688847e-02 -9.14522412e-02 
 9.85000000e-09  2.22894433e-04  9.16612032e-02 -9.14383087e-02 
 9.95000000e-09  2.29239263e-04  9.16535091e-02 -9.14242699e-02 
 1.00500000e-08  2.35673084e-04  9.16458007e-02 -9.14101276e-02 
 1.01500000e-08  2.42191906e-04  9.16380767e-02 -9.13958848e-02 
 1.02500000e-08  2.48792732e-04  9.16303368e-02 -9.13815441e-02 
 1.03500000e-08  2.55470768e-04  9.16225792e-02 -9.13671084e-02 
 1.04500000e-08  2.62224493e-04  9.16148048e-02 -9.13525803e-02 
 1.05500000e-08  2.69048592e-04  9.16070110e-02 -9.13379624e-02 
 1.06500000e-08  2.75942626e-04  9.15991999e-02 -9.13232572e-02 
 1.07500000e-08  2.82900961e-04  9.15913683e-02 -9.13084673e-02 
 1.08500000e-08  2.89923979e-04  9.15835190e-02 -9.12935951e-02 
 1.09500000e-08  2.97005878e-04  9.15756487e-02 -9.12786428e-02 
 1.10000000e-08  3.00570196e-04  9.15717076e-02 -9.12711374e-02 
 1.10100000e-08  3.01487810e-04  9.15711215e-02 -9.12696336e-02 
 1.10300000e-08  3.02724707e-04  9.15693493e-02 -9.12666246e-02 
 1.10700000e-08  3.05419683e-04  9.15660171e-02 -9.12605974e-02 
 1.11500000e-08  3.11448392e-04  9.15599556e-02 -9.12485072e-02 
 1.12500000e-08  3.18514869e-04  9.15518438e-02 -9.12333290e-02 
 1.13500000e-08  3.25980236e-04  9.15440600e-02 -9.12180797e-02 
 1.14500000e-08  3.33311265e-04  9.15360729e-02 -9.12027617e-02 
 1.15500000e-08  3.40742059e-04  9.15281189e-02 -9.11873769e-02 
 1.16500000e-08  3.49395087e-04  9.15213225e-02 -9.11719275e-02 
 1.17500000e-08  3.57158120e-04  9.15135736e-02 -9.11564155e-02 
 1.18500000e-08  3.55354367e-04  9.14961969e-02 -9.11408425e-02 
 1.19500000e-08  3.18537016e-04  9.14437451e-02 -9.11252081e-02 
 1.20000000e-08  2.31541436e-04  9.13489077e-02 -9.11173663e-02 
 1.20100000e-08  2.08276004e-04  9.13240713e-02 -9.11157953e-02 
 1.20300000e-08  1.91046661e-04  9.13036984e-02 -9.11126517e-02 
 1.20700000e-08  6.33021654e-04  9.17393798e-02 -9.11063581e-02 
 1.21500000e-08  4.56359220e-03  9.56574571e-02 -9.10938649e-02 
 1.22500000e-08  1.09055551e-02  1.01984431e-01 -9.10788755e-02 
 1.23500000e-08  1.35553771e-02  1.04620441e-01 -9.10650635e-02 
 1.24500000e-08  1.29028065e-02  1.03955282e-01 -9.10524753e-02 
 1.25500000e-08  1.09621774e-02  1.02002958e-01 -9.10407809e-02 
 1.26500000e-08  8.23461635e-03  9.92642738e-02 -9.10296574e-02 
 1.27500000e-08  4.66796692e-03  9.56869293e-02 -9.10189624e-02 
 1.28500000e-08  2.53526179e-04  9.12622513e-02 -9.10087251e-02 
 1.29500000e-08 -4.90680974e-03  8.60922849e-02 -9.09990946e-02 
 1.30500000e-08 -1.25394887e-02  7.84508860e-02 -9.09903747e-02 
 1.31500000e-08 -2.18593070e-02  6.91237887e-02 -9.09830957e-02 
 1.32500000e-08 -2.29748537e-02  6.80027223e-02 -9.09775760e-02 
 1.33500000e-08 -1.81623423e-02  7.28109637e-02 -9.09733060e-02 
 1.34500000e-08 -1.24326847e-02  7.85365551e-02 -9.09692398e-02 
 1.35500000e-08 -7.67442565e-03  8.32900698e-02 -9.09644954e-02 
 1.36500000e-08 -4.14097057e-03  8.68176054e-02 -9.09585760e-02 
 1.37500000e-08 -1.61503421e-03  8.93362343e-02 -9.09512685e-02 
 1.38500000e-08  1.38759568e-04  9.10812737e-02 -9.09425141e-02 
 1.39500000e-08  1.33692632e-03  9.22692525e-02 -9.09323262e-02 
 1.40500000e-08  2.12136003e-03  9.30421082e-02 -9.09207481e-02 
 1.41500000e-08  2.61864141e-03  9.35264754e-02 -9.09078340e-02 
 1.42500000e-08  2.90061338e-03  9.37942532e-02 -9.08936398e-02 
 1.43500000e-08  3.04124498e-03  9.39194652e-02 -9.08782202e-02 
 1.44500000e-08  3.07366199e-03  9.39352888e-02 -9.08616268e-02 
 1.45500000e-08  3.04294825e-03  9.38868564e-02 -9.08439081e-02 
 1.46500000e-08  2.96105824e-03  9.37861678e-02 -9.08251095e-02 
 1.47500000e-08  2.85719331e-03  9.36624668e-02 -9.08052734e-02 
 1.48500000e-08  2.73176645e-03  9.35162060e-02 -9.07844396e-02 
 1.49500000e-08  2.60527268e-03  9.33679180e-02 -9.07626453e-02 
 1.50500000e-08  2.47191348e-03  9.32118391e-02 -9.07399256e-02 
 1.51500000e-08  2.34745741e-03  9.30637711e-02 -9.07163137e-02 
 1.52500000e-08  2.22284447e-03  9.29146851e-02 -9.06918406e-02 
 1.53500000e-08  2.11131661e-03  9.27778528e-02 -9.06665361e-02 
 1.54500000e-08  2.00217414e-03  9.26426023e-02 -9.06404282e-02 
 1.55500000e-08  1.90733760e-03  9.25208811e-02 -9.06135435e-02 
 1.56500000e-08  1.81534772e-03  9.24012551e-02 -9.05859074e-02 
 1.57500000e-08  1.73745452e-03  9.22949985e-02 -9.05575440e-02 
 1.58500000e-08  1.66190748e-03  9.21903840e-02 -9.05284765e-02 
 1.59500000e-08  1.59962928e-03  9.20983562e-02 -9.04987269e-02 
 1.60000000e-08  1.56697857e-03  9.20505809e-02 -9.04836023e-02 
 1.60100000e-08  1.56235153e-03  9.20429061e-02 -9.04805546e-02 
 1.60300000e-08  1.55124498e-03  9.20256910e-02 -9.04744461e-02 
 1.60700000e-08  1.52980197e-03  9.19919539e-02 -9.04621519e-02 
 1.61500000e-08  1.48896289e-03  9.19262229e-02 -9.04372600e-02 
 1.62500000e-08  1.44391062e-03  9.18494984e-02 -9.04055877e-02 
 1.63500000e-08  1.40417768e-03  9.17774906e-02 -9.03733129e-02 
 1.64500000e-08  1.36958660e-03  9.17100401e-02 -9.03404535e-02 
 1.65500000e-08  1.33924682e-03  9.16462735e-02 -9.03070267e-02 
 1.66500000e-08  1.31378740e-03  9.15868365e-02 -9.02730491e-02 
 1.67500000e-08  1.29239629e-03  9.15309331e-02 -9.02385368e-02 
 1.68500000e-08  1.27469032e-03  9.14781958e-02 -9.02035055e-02 
 1.69500000e-08  1.26034052e-03  9.14283106e-02 -9.01679701e-02 
 1.70000000e-08  1.25406426e-03  9.14040817e-02 -9.01500175e-02 
 1.70100000e-08  1.25315465e-03  9.13995646e-02 -9.01464100e-02 
 1.70300000e-08  1.25079239e-03  9.13899778e-02 -9.01391854e-02 
 1.70700000e-08  1.24656502e-03  9.13712441e-02 -9.01246791e-02 
 1.71500000e-08  1.23994802e-03  9.13353889e-02 -9.00954409e-02 
 1.72500000e-08  1.23346606e-03  9.12919446e-02 -9.00584785e-02 
 1.73500000e-08  1.22953605e-03  9.12506034e-02 -9.00210674e-02 
 1.74500000e-08  1.22745978e-03  9.12106799e-02 -8.99832201e-02 
 1.75500000e-08  1.22747054e-03  9.11724196e-02 -8.99449491e-02 
 1.76500000e-08  1.22908224e-03  9.11353485e-02 -8.99062663e-02 
 1.77500000e-08  1.23241716e-03  9.10996006e-02 -8.98671834e-02 
 1.78500000e-08  1.23712619e-03  9.10648379e-02 -8.98277117e-02 
 1.79500000e-08  1.24327040e-03  9.10311326e-02 -8.97878622e-02 
 1.80500000e-08  1.25059375e-03  9.09982393e-02 -8.97476455e-02 
 1.81500000e-08  1.25912091e-03  9.09661930e-02 -8.97070721e-02 
 1.82500000e-08  1.26866101e-03  9.09348130e-02 -8.96661519e-02 
 1.83500000e-08  1.27921767e-03  9.09041127e-02 -8.96248950e-02 
 1.84500000e-08  1.29064673e-03  9.08739575e-02 -8.95833107e-02 
 1.85500000e-08  1.30293935e-03  9.08443479e-02 -8.95414086e-02 
 1.86500000e-08  1.31598569e-03  9.08151832e-02 -8.94991975e-02 
 1.87500000e-08  1.32976988e-03  9.07864562e-02 -8.94566863e-02 
 1.88500000e-08  1.34420741e-03  9.07580912e-02 -8.94138838e-02 
 1.89500000e-08  1.35927891e-03  9.07300770e-02 -8.93707981e-02 
 1.90500000e-08  1.37491876e-03  9.07023564e-02 -8.93274377e-02 
 1.91500000e-08  1.39110626e-03  9.06749166e-02 -8.92838103e-02 
 1.92500000e-08  1.40778996e-03  9.06477138e-02 -8.92399238e-02 
 1.93500000e-08  1.42494921e-03  9.06207351e-02 -8.91957859e-02 
 1.94500000e-08  1.44254328e-03  9.05939470e-02 -8.91514038e-02 
 1.95500000e-08  1.46055227e-03  9.05673371e-02 -8.91067848e-02 
 1.96500000e-08  1.47894371e-03  9.05408797e-02 -8.90619360e-02 
 1.97500000e-08  1.49769890e-03  9.05145632e-02 -8.90168643e-02 
 1.98500000e-08  1.51679171e-03  9.04883680e-02 -8.89715763e-02 
 1.99500000e-08  1.53620480e-03  9.04622834e-02 -8.89260787e-02 
 2.00500000e-08  1.55591697e-03  9.04362947e-02 -8.88803777e-02 
 2.01500000e-08  1.57591230e-03  9.04103921e-02 -8.88344798e-02 
 2.02500000e-08  1.59617351e-03  9.03845645e-02 -8.87883910e-02 
 2.03500000e-08  1.61668603e-03  9.03588032e-02 -8.87421172e-02 
 2.04500000e-08  1.63743566e-03  9.03331000e-02 -8.86956643e-02 
 2.05500000e-08  1.65840917e-03  9.03074472e-02 -8.86490380e-02 
 2.06500000e-08  1.67959478e-03  9.02818386e-02 -8.86022438e-02 
 2.07500000e-08  1.70098043e-03  9.02562676e-02 -8.85552872e-02 
 2.08500000e-08  1.72255635e-03  9.02307297e-02 -8.85081734e-02 
 2.09500000e-08  1.74431156e-03  9.02052192e-02 -8.84609077e-02 
 2.10000000e-08  1.75525443e-03  9.01924737e-02 -8.84372193e-02 
 2.10100000e-08  1.75762910e-03  9.01901056e-02 -8.84324765e-02 
 2.10300000e-08  1.76185635e-03  9.01848445e-02 -8.84229881e-02 
 2.10700000e-08  1.77050524e-03  9.01744995e-02 -8.84039943e-02 
 2.11500000e-08  1.78841387e-03  9.01543532e-02 -8.83659393e-02 
 2.12500000e-08  1.81050024e-03  9.01287480e-02 -8.83182478e-02 
 2.13500000e-08  1.83302897e-03  9.01034528e-02 -8.82704238e-02 
 2.14500000e-08  1.85555483e-03  9.00780269e-02 -8.82224721e-02 
 2.15500000e-08  1.87825147e-03  9.00526486e-02 -8.81743971e-02 
 2.16500000e-08  1.90270399e-03  9.00289075e-02 -8.81262035e-02 
 2.17500000e-08  1.92509709e-03  9.00029926e-02 -8.80778955e-02 
 2.18500000e-08  1.93984227e-03  8.99693192e-02 -8.80294770e-02 
 2.19500000e-08  1.92601553e-03  8.99069656e-02 -8.79809500e-02 
 2.20000000e-08  1.84888524e-03  8.98055305e-02 -8.79566452e-02 
 2.20100000e-08  1.82601242e-03  8.97777926e-02 -8.79517801e-02 
 2.20300000e-08  1.80227146e-03  8.97443189e-02 -8.79420475e-02 
 2.20700000e-08  2.17147568e-03  9.00940455e-02 -8.79225698e-02 
 2.21500000e-08  6.11570080e-03  9.39993841e-02 -8.78836833e-02 
 2.22500000e-08  1.32724841e-02  1.01108173e-01 -8.78356892e-02 
 2.23500000e-08  1.69414873e-02  1.04730439e-01 -8.77889516e-02 
 2.24500000e-08  1.66360230e-02  1.04379624e-01 -8.77436011e-02 
 2.25500000e-08  1.46065112e-02  1.02305809e-01 -8.76992975e-02 
 2.26500000e-08  1.17473937e-02  9.94030346e-02 -8.76556410e-02 
 2.27500000e-08  8.08901364e-03  9.57014225e-02 -8.76124088e-02 
 2.28500000e-08  3.65073781e-03  9.12203062e-02 -8.75695684e-02 
 2.29500000e-08 -1.43494663e-03  8.60922708e-02 -8.75272174e-02 
 2.30500000e-08 -7.28579028e-03  8.01997558e-02 -8.74855461e-02 
 2.31500000e-08 -1.67873090e-02  7.06576373e-02 -8.74449463e-02 
 2.32500000e-08 -2.50483344e-02  6.23576700e-02 -8.74060044e-02 
 2.33500000e-08 -2.43916855e-02  6.29771969e-02 -8.73688824e-02 
 2.34500000e-08 -1.86102272e-02  6.87226228e-02 -8.73328500e-02 
 2.35500000e-08 -1.20676648e-02  7.52291006e-02 -8.72967654e-02 
 2.36500000e-08 -6.56729413e-03  8.06924263e-02 -8.72597204e-02 
 2.37500000e-08 -2.42754952e-03  8.47936515e-02 -8.72212011e-02 
 2.38500000e-08  5.33679175e-04  8.77146670e-02 -8.71809878e-02 
 2.39500000e-08  2.58315124e-03  8.97221785e-02 -8.71390272e-02 
 2.40500000e-08  3.96104786e-03  9.10563940e-02 -8.70953461e-02 
 2.41500000e-08  4.85118048e-03  9.19011853e-02 -8.70500048e-02 
 2.42500000e-08  5.39473676e-03  9.23978115e-02 -8.70030747e-02 
 2.43500000e-08  5.69205335e-03  9.26466816e-02 -8.69546283e-02 
 2.44500000e-08  5.82001506e-03  9.27247499e-02 -8.69047349e-02 
 2.45500000e-08  5.83096353e-03  9.26844232e-02 -8.68534596e-02 
 2.46500000e-08  5.76625857e-03  9.25671216e-02 -8.68008630e-02 
 2.47500000e-08  5.65211078e-03  9.23991119e-02 -8.67470011e-02 
 2.48500000e-08  5.51063641e-03  9.22025627e-02 -8.66919263e-02 
 2.49500000e-08  5.35396559e-03  9.19896526e-02 -8.66356871e-02 
 2.50500000e-08  5.19388366e-03  9.17722127e-02 -8.65783290e-02 
 2.51500000e-08  5.03502685e-03  9.15549217e-02 -8.65198948e-02 
 2.52500000e-08  4.88371888e-03  9.13441434e-02 -8.64604245e-02 
 2.53500000e-08  4.74069378e-03  9.11406498e-02 -8.63999560e-02 
 2.54500000e-08  4.60946188e-03  9.09479868e-02 -8.63385249e-02 
 2.55500000e-08  4.48880058e-03  9.07649658e-02 -8.62761652e-02 
 2.56500000e-08  4.38083361e-03  9.05937426e-02 -8.62129090e-02 
 2.57500000e-08  4.28342103e-03  9.04322077e-02 -8.61487867e-02 
 2.58500000e-08  4.19805512e-03  9.02818827e-02 -8.60838276e-02 
 2.59500000e-08  4.12222230e-03  9.01402817e-02 -8.60180594e-02 
 2.60000000e-08  4.08877257e-03  9.00736520e-02 -8.59848794e-02 
 2.60100000e-08  4.08184855e-03  9.00600649e-02 -8.59782163e-02 
 2.60300000e-08  4.06928274e-03  9.00341577e-02 -8.59648749e-02 
 2.60700000e-08  4.04529975e-03  8.99834007e-02 -8.59381010e-02 
 2.61500000e-08  4.00068115e-03  8.98848756e-02 -8.58841945e-02 
 2.62500000e-08  3.95289931e-03  8.97690533e-02 -8.58161540e-02 
 2.63500000e-08  3.91255682e-03  8.96599610e-02 -8.57474042e-02 
 2.64500000e-08  3.87933668e-03  8.95573042e-02 -8.56779675e-02 
 2.65500000e-08  3.85194922e-03  8.94598146e-02 -8.56078654e-02 
