 time            v(Vout+)        v(Vout-)        v(Vout+)-v(Vout-)
 0.00000000e+00  1.34517587e-10  3.87068542e-05 -3.87067196e-05 
 1.00000000e-12  1.44410695e-10  3.87068640e-05 -3.87067196e-05 
 2.00000000e-12  1.42042031e-10  3.87068617e-05 -3.87067196e-05 
 4.00000000e-12  1.37686491e-10  3.87068573e-05 -3.87067196e-05 
 8.00000000e-12  1.33413734e-10  3.87068531e-05 -3.87067196e-05 
 1.60000000e-11  1.32305849e-10  3.87068519e-05 -3.87067196e-05 
 3.20000000e-11  1.33978962e-10  3.87068536e-05 -3.87067196e-05 
 6.40000000e-11  1.34812650e-10  3.87068544e-05 -3.87067196e-05 
 1.28000000e-10  1.34458937e-10  3.87068541e-05 -3.87067196e-05 
 2.28000000e-10  1.34630665e-10  3.87068543e-05 -3.87067196e-05 
 3.28000000e-10  1.34433142e-10  3.87068541e-05 -3.87067196e-05 
 4.28000000e-10  1.34592556e-10  3.87068542e-05 -3.87067196e-05 
 5.28000000e-10  1.34434277e-10  3.87068541e-05 -3.87067196e-05 
 6.28000000e-10  1.34566627e-10  3.87068542e-05 -3.87067196e-05 
 7.28000000e-10  1.34417363e-10  3.87068541e-05 -3.87067196e-05 
 8.28000000e-10  1.34546673e-10  3.87068542e-05 -3.87067196e-05 
 9.28000000e-10  1.34404984e-10  3.87068540e-05 -3.87067196e-05 
 1.00000000e-09  1.34528913e-10  3.87068542e-05 -3.87067196e-05 
 1.01000000e-09  4.33318125e-09  3.87110570e-05 -3.87067238e-05 
 1.03000000e-09 -7.78108865e-09  3.86989390e-05 -3.87067201e-05 
 1.07000000e-09  6.04769974e-09  3.87127639e-05 -3.87067162e-05 
 1.15000000e-09 -4.34842852e-09  3.87023734e-05 -3.87067218e-05 
 1.25000000e-09  3.85337420e-09  3.87105714e-05 -3.87067180e-05 
 1.35000000e-09 -2.80167796e-09  3.87039202e-05 -3.87067219e-05 
 1.45000000e-09  3.90255401e-09  3.87106286e-05 -3.87067260e-05 
 1.55000000e-09 -7.76803534e-09  3.86989375e-05 -3.87067055e-05 
 1.65000000e-09  1.89776733e-08  3.87257375e-05 -3.87067598e-05 
 1.75000000e-09 -2.57159252e-08  3.86810090e-05 -3.87067249e-05 
 1.85000000e-09 -1.16556973e-08  3.86948830e-05 -3.87065387e-05 
 1.95000000e-09 -1.31632431e-07  3.85741952e-05 -3.87058276e-05 
 2.00000000e-09 -4.55083946e-07  3.82492899e-05 -3.87043738e-05 
 2.01000000e-09 -2.09366729e-07  3.84948008e-05 -3.87041675e-05 
 2.03000000e-09  8.59510093e-07  3.95643251e-05 -3.87048150e-05 
 2.07000000e-09  6.35569854e-06  4.50748148e-05 -3.87191163e-05 
 2.15000000e-09  1.74612997e-05  5.62747339e-05 -3.88134342e-05 
 2.25000000e-09  4.35276251e-06  4.32737489e-05 -3.89209864e-05 
 2.35000000e-09  1.35176711e-06  4.03269106e-05 -3.89751435e-05 
 2.45000000e-09 -7.71079929e-06  3.13374152e-05 -3.90482145e-05 
 2.55000000e-09 -1.49372046e-05  2.42353148e-05 -3.91725194e-05 
 2.65000000e-09 -2.16911273e-05  1.76550139e-05 -3.93461412e-05 
 2.75000000e-09  1.61131010e-05  5.54662879e-05 -3.93531869e-05 
 2.85000000e-09 -1.39178496e-05  2.53973528e-05 -3.93152023e-05 
 2.95000000e-09  1.45695196e-05  5.38504844e-05 -3.92809647e-05 
 3.05000000e-09 -1.35175493e-05  2.57259256e-05 -3.92434749e-05 
 3.15000000e-09  1.40046570e-05  5.32122106e-05 -3.92075536e-05 
 3.25000000e-09 -1.31852268e-05  2.59849008e-05 -3.91701276e-05 
 3.35000000e-09  1.35188926e-05  5.26535755e-05 -3.91346828e-05 
 3.45000000e-09 -1.28329945e-05  2.62650702e-05 -3.90980646e-05 
 3.55000000e-09  1.30711615e-05  5.21346707e-05 -3.90635092e-05 
 3.65000000e-09 -1.24715217e-05  2.65563385e-05 -3.90278601e-05 
 3.75000000e-09  1.26510489e-05  5.16452815e-05 -3.89942326e-05 
 3.85000000e-09 -1.21073788e-05  2.68521436e-05 -3.89595224e-05 
 3.95000000e-09  1.22531898e-05  5.11799495e-05 -3.89267598e-05 
 4.05000000e-09 -1.17441533e-05  2.71487559e-05 -3.88929093e-05 
 4.15000000e-09  1.18742747e-05  5.07352033e-05 -3.88609286e-05 
 4.25000000e-09 -1.13839787e-05  2.74438759e-05 -3.88278546e-05 
 4.35000000e-09  1.15120307e-05  5.03086077e-05 -3.87965770e-05 
 4.45000000e-09 -1.10282226e-05  2.77359820e-05 -3.87642046e-05 
 4.55000000e-09  1.11647737e-05  4.98983351e-05 -3.87335615e-05 
 4.65000000e-09 -1.06778055e-05  2.80240211e-05 -3.87018266e-05 
 4.75000000e-09  1.08311895e-05  4.95029493e-05 -3.86717598e-05 
 4.85000000e-09 -1.03333641e-05  2.83072441e-05 -3.86406083e-05 
 4.95000000e-09  1.05102257e-05  4.91212944e-05 -3.86110688e-05 
 5.05000000e-09 -9.99534990e-06  2.85851048e-05 -3.85804547e-05 
 5.15000000e-09  1.02010157e-05  4.87524168e-05 -3.85514011e-05 
 5.25000000e-09 -9.66406981e-06  2.88572160e-05 -3.85212858e-05 
 5.35000000e-09  9.90282000e-06  4.83955030e-05 -3.84926830e-05 
 5.45000000e-09 -9.33971562e-06  2.91233178e-05 -3.84630334e-05 
 5.55000000e-09  9.61499898e-06  4.80498505e-05 -3.84348515e-05 
 5.65000000e-09 -9.02240063e-06  2.93832387e-05 -3.84056393e-05 
 5.75000000e-09  9.33699588e-06  4.77148488e-05 -3.83778529e-05 
 5.85000000e-09 -8.71217868e-06  2.96368750e-05 -3.83490537e-05 
 5.95000000e-09  9.06832049e-06  4.73899612e-05 -3.83216407e-05 
 6.00000000e-09 -8.27513427e-06  3.00319900e-05 -3.83071242e-05 
 6.01000000e-09 -7.91738707e-08  3.82254436e-05 -3.83046174e-05 
 6.03000000e-09  5.82189459e-07  3.88812699e-05 -3.82990804e-05 
 6.07000000e-09 -3.84985314e-08  3.82494842e-05 -3.82879827e-05 
 6.15000000e-09  5.72034310e-07  3.88379303e-05 -3.82658960e-05 
 6.25000000e-09 -8.26301309e-09  3.82301625e-05 -3.82384255e-05 
 6.35000000e-09  5.82935636e-07  3.87940868e-05 -3.82111512e-05 
 6.45000000e-09  2.13416443e-08  3.82053605e-05 -3.81840189e-05 
 6.55000000e-09  5.94118792e-07  3.87511889e-05 -3.81570701e-05 
 6.65000000e-09  5.24553805e-08  3.81827228e-05 -3.81302674e-05 
 6.75000000e-09  6.08036654e-07  3.87116944e-05 -3.81036578e-05 
 6.85000000e-09  8.26265709e-08  3.81598079e-05 -3.80771814e-05 
 6.95000000e-09  6.22567147e-07  3.86734552e-05 -3.80508880e-05 
 7.00000000e-09  1.09423353e-07  3.81471986e-05 -3.80377752e-05 
 7.01000000e-09  3.61711581e-07  3.83968831e-05 -3.80351715e-05 
 7.03000000e-09  3.69152411e-07  3.83990948e-05 -3.80299424e-05 
 7.07000000e-09  3.70733179e-07  3.83902372e-05 -3.80195040e-05 
 7.15000000e-09  3.85357134e-07  3.83840698e-05 -3.79987126e-05 
 7.25000000e-09  3.89290360e-07  3.83621374e-05 -3.79728470e-05 
 7.35000000e-09  4.08816899e-07  3.83559505e-05 -3.79471336e-05 
 7.45000000e-09  4.11058306e-07  3.83326167e-05 -3.79215584e-05 
 7.55000000e-09  4.31997029e-07  3.83281263e-05 -3.78961293e-05 
 7.65000000e-09  4.33281872e-07  3.83041183e-05 -3.78708365e-05 
 7.75000000e-09  4.55017052e-07  3.83007022e-05 -3.78456852e-05 
 7.85000000e-09  4.55771964e-07  3.82764398e-05 -3.78206679e-05 
 7.95000000e-09  4.77925739e-07  3.82737139e-05 -3.77957881e-05 
 8.05000000e-09  4.78415701e-07  3.82494557e-05 -3.77710400e-05 
 8.15000000e-09  5.00739643e-07  3.82471657e-05 -3.77464261e-05 
 8.25000000e-09  5.01136362e-07  3.82230779e-05 -3.77219415e-05 
 8.35000000e-09  5.23461030e-07  3.82210491e-05 -3.76975881e-05 
 8.45000000e-09  5.23876813e-07  3.81972386e-05 -3.76733618e-05 
 8.55000000e-09  5.46087293e-07  3.81953513e-05 -3.76492640e-05 
 8.65000000e-09  5.46593940e-07  3.81718851e-05 -3.76252912e-05 
 8.75000000e-09  5.68610971e-07  3.81700554e-05 -3.76014445e-05 
 8.85000000e-09  5.69254604e-07  3.81469754e-05 -3.75777208e-05 
 8.95000000e-09  5.91023523e-07  3.81451445e-05 -3.75541210e-05 
 9.05000000e-09  5.91832531e-07  3.81224749e-05 -3.75306423e-05 
 9.15000000e-09  6.13316312e-07  3.81206018e-05 -3.75072855e-05 
 9.25000000e-09  6.14306752e-07  3.80983548e-05 -3.74840481e-05 
 9.35000000e-09  6.35480567e-07  3.80964111e-05 -3.74609306e-05 
 9.45000000e-09  6.36660672e-07  3.80745914e-05 -3.74379308e-05 
 9.55000000e-09  6.57508350e-07  3.80725575e-05 -3.74150491e-05 
 9.65000000e-09  6.58880651e-07  3.80511643e-05 -3.73922836e-05 
 9.75000000e-09  6.79392376e-07  3.80490270e-05 -3.73696346e-05 
 9.85000000e-09  6.80955716e-07  3.80280559e-05 -3.73471002e-05 
 9.95000000e-09  7.01126140e-07  3.80258069e-05 -3.73246807e-05 
 1.00500000e-08  7.02876953e-07  3.80052513e-05 -3.73023744e-05 
 1.01500000e-08  7.22703907e-07  3.80028854e-05 -3.72801815e-05 
 1.02500000e-08  7.24637169e-07  3.79827375e-05 -3.72581003e-05 
 1.03500000e-08  7.44120723e-07  3.79802519e-05 -3.72361312e-05 
 1.04500000e-08  7.46230500e-07  3.79605029e-05 -3.72142724e-05 
 1.05500000e-08  7.65372355e-07  3.79578967e-05 -3.71925243e-05 
 1.06500000e-08  7.67652210e-07  3.79385375e-05 -3.71708853e-05 
 1.07500000e-08  7.86455236e-07  3.79358109e-05 -3.71493557e-05 
 1.08500000e-08  7.88898534e-07  3.79168324e-05 -3.71279339e-05 
 1.09500000e-08  8.07366434e-07  3.79139866e-05 -3.71066202e-05 
 1.10000000e-08  8.04806370e-07  3.79008095e-05 -3.70960032e-05 
 1.10100000e-08  8.13309558e-07  3.79071970e-05 -3.70938874e-05 
 1.10300000e-08  8.04946650e-07  3.78945938e-05 -3.70896471e-05 
 1.10700000e-08  8.20998759e-07  3.79021810e-05 -3.70811822e-05 
 1.11500000e-08  8.20426732e-07  3.78847418e-05 -3.70643151e-05 
 1.12500000e-08  8.37801419e-07  3.78811186e-05 -3.70433172e-05 
 1.13500000e-08  8.42384115e-07  3.78648150e-05 -3.70224309e-05 
 1.14500000e-08  8.57855287e-07  3.78595018e-05 -3.70016465e-05 
 1.15500000e-08  8.62895273e-07  3.78438618e-05 -3.69809665e-05 
 1.16500000e-08  8.83547845e-07  3.78439641e-05 -3.69604163e-05 
 1.17500000e-08  8.80212268e-07  3.78201661e-05 -3.69399538e-05 
 1.18500000e-08  8.65555636e-07  3.77849600e-05 -3.69194043e-05 
 1.19500000e-08  7.54302052e-07  3.76525345e-05 -3.68982324e-05 
 1.20000000e-08  3.55835137e-07  3.72422171e-05 -3.68863820e-05 
 1.20100000e-08  4.51389401e-07  3.73352995e-05 -3.68839101e-05 
 1.20300000e-08  1.01467750e-06  3.78942046e-05 -3.68795271e-05 
 1.20700000e-08  4.87644091e-06  4.17559937e-05 -3.68795528e-05 
 1.21500000e-08  1.81078819e-05  5.50553257e-05 -3.69474438e-05 
 1.22500000e-08  1.78396755e-05  5.49361418e-05 -3.70964664e-05 
 1.23500000e-08  7.35036409e-06  4.45421586e-05 -3.71917945e-05 
 1.24500000e-08  4.80787636e-06  4.20334923e-05 -3.72256159e-05 
 1.25500000e-08  5.63707811e-07  3.78113362e-05 -3.72476284e-05 
 1.26500000e-08 -2.43487672e-06  3.48445829e-05 -3.72794596e-05 
 1.27500000e-08 -7.70036569e-06  2.96296880e-05 -3.73300537e-05 
 1.28500000e-08 -1.10653875e-05  2.63383861e-05 -3.74037736e-05 
 1.29500000e-08 -2.03767445e-05  1.71482024e-05 -3.75249469e-05 
 1.30500000e-08 -2.99310110e-05  7.79627113e-06 -3.77272822e-05 
 1.31500000e-08  4.76480186e-07  3.82927687e-05 -3.78162885e-05 
 1.32500000e-08 -5.30762102e-06  3.24686850e-05 -3.77763061e-05 
 1.33500000e-08  9.03586749e-06  4.67255898e-05 -3.76897223e-05 
 1.34500000e-08 -3.19817489e-06  3.43922285e-05 -3.75904034e-05 
 1.35500000e-08  8.91104106e-06  4.64014909e-05 -3.74904498e-05 
 1.36500000e-08 -3.28785836e-06  3.41025393e-05 -3.73903976e-05 
 1.37500000e-08  8.39641674e-06  4.56891696e-05 -3.72927528e-05 
 1.38500000e-08 -3.38180042e-06  3.38139671e-05 -3.71957676e-05 
 1.39500000e-08  7.96131362e-06  4.50626286e-05 -3.71013150e-05 
 1.40500000e-08 -3.40252745e-06  3.36049880e-05 -3.70075155e-05 
 1.41500000e-08  7.60265835e-06  4.45187877e-05 -3.69161294e-05 
 1.42500000e-08 -3.36660224e-06  3.34586871e-05 -3.68252893e-05 
 1.43500000e-08  7.30299101e-06  4.40396900e-05 -3.67366990e-05 
 1.44500000e-08 -3.28933252e-06  3.33591968e-05 -3.66485293e-05 
 1.45500000e-08  7.04874830e-06  4.36111923e-05 -3.65624440e-05 
 1.46500000e-08 -3.18206301e-06  3.32945975e-05 -3.64766605e-05 
 1.47500000e-08  6.82992506e-06  4.32227341e-05 -3.63928090e-05 
 1.48500000e-08 -3.05307006e-06  3.32560855e-05 -3.63091555e-05 
 1.49500000e-08  6.63915090e-06  4.28664497e-05 -3.62272988e-05 
 1.50500000e-08 -2.90840386e-06  3.32371487e-05 -3.61455526e-05 
 1.51500000e-08  6.47095422e-06  4.25364395e-05 -3.60654853e-05 
 1.52500000e-08 -2.75251959e-06  3.32329370e-05 -3.59854566e-05 
 1.53500000e-08  6.32122561e-06  4.22282302e-05 -3.59070046e-05 
 1.54500000e-08 -2.58872917e-06  3.32398039e-05 -3.58285331e-05 
 1.55500000e-08  6.18683750e-06  4.19383869e-05 -3.57515494e-05 
 1.56500000e-08 -2.41951932e-06  3.32549803e-05 -3.56744996e-05 
 1.57500000e-08  6.06537616e-06  4.16642366e-05 -3.55988604e-05 
 1.58500000e-08 -2.24677568e-06  3.32763424e-05 -3.55231181e-05 
 1.59500000e-08  5.95495292e-06  4.14036718e-05 -3.54487188e-05 
 1.60000000e-08 -2.01251674e-06  3.33986872e-05 -3.54112039e-05 
 1.60100000e-08  1.73854231e-06  3.71425009e-05 -3.54039586e-05 
 1.60300000e-08  2.07346149e-06  3.74626219e-05 -3.53891604e-05 
 1.60700000e-08  1.76752265e-06  3.71271286e-05 -3.53596060e-05 
 1.61500000e-08  2.08327661e-06  3.73840512e-05 -3.53007746e-05 
 1.62500000e-08  1.81023212e-06  3.70379515e-05 -3.52277194e-05 
 1.63500000e-08  2.11962349e-06  3.72748327e-05 -3.51552092e-05 
 1.64500000e-08  1.85764214e-06  3.69408373e-05 -3.50831952e-05 
 1.65500000e-08  2.15846655e-06  3.71701525e-05 -3.50116860e-05 
 1.66500000e-08  1.91079618e-06  3.68514593e-05 -3.49406631e-05 
 1.67500000e-08  2.20296678e-06  3.70731058e-05 -3.48701390e-05 
 1.68500000e-08  1.96465709e-06  3.67647243e-05 -3.48000672e-05 
 1.69500000e-08  2.24981485e-06  3.69802813e-05 -3.47304665e-05 
 1.70000000e-08  2.00748844e-06  3.67033057e-05 -3.46958172e-05 
 1.70100000e-08  2.13545886e-06  3.68243712e-05 -3.46889123e-05 
 1.70300000e-08  2.13861454e-06  3.68137073e-05 -3.46750928e-05 
 1.70700000e-08  2.15272058e-06  3.68002279e-05 -3.46475074e-05 
 1.71500000e-08  2.17281393e-06  3.67653681e-05 -3.45925541e-05 
 1.72500000e-08  2.19909892e-06  3.67233344e-05 -3.45242354e-05 
 1.73500000e-08  2.22742056e-06  3.66837581e-05 -3.44563375e-05 
 1.74500000e-08  2.25265842e-06  3.66415010e-05 -3.43888426e-05 
 1.75500000e-08  2.28281467e-06  3.66045661e-05 -3.43217514e-05 
 1.76500000e-08  2.30751614e-06  3.65625666e-05 -3.42550505e-05 
 1.77500000e-08  2.33887409e-06  3.65276131e-05 -3.41887390e-05 
 1.78500000e-08  2.36331370e-06  3.64861198e-05 -3.41228061e-05 
 1.79500000e-08  2.39546075e-06  3.64527110e-05 -3.40572503e-05 
 1.80500000e-08  2.41979044e-06  3.64118529e-05 -3.39920624e-05 
 1.81500000e-08  2.45244209e-06  3.63796827e-05 -3.39272406e-05 
 1.82500000e-08  2.47674367e-06  3.63395210e-05 -3.38627773e-05 
 1.83500000e-08  2.50969391e-06  3.63083642e-05 -3.37986703e-05 
 1.84500000e-08  2.53401094e-06  3.62689240e-05 -3.37349131e-05 
 1.85500000e-08  2.56710728e-06  3.62386107e-05 -3.36715034e-05 
 1.86500000e-08  2.59145920e-06  3.61998949e-05 -3.36084357e-05 
 1.87500000e-08  2.62458815e-06  3.61702958e-05 -3.35457077e-05 
 1.88500000e-08  2.64897847e-06  3.61322929e-05 -3.34833144e-05 
 1.89500000e-08  2.68205425e-06  3.61033081e-05 -3.34212538e-05 
 1.90500000e-08  2.70647809e-06  3.60659994e-05 -3.33595213e-05 
 1.91500000e-08  2.73943528e-06  3.60375503e-05 -3.32981150e-05 
 1.92500000e-08  2.76388200e-06  3.60009128e-05 -3.32370308e-05 
 1.93500000e-08  2.79667062e-06  3.59729375e-05 -3.31762668e-05 
 1.94500000e-08  2.82112675e-06  3.59369461e-05 -3.31158194e-05 
 1.95500000e-08  2.85370840e-06  3.59093950e-05 -3.30556866e-05 
 1.96500000e-08  2.87815916e-06  3.58740244e-05 -3.29958652e-05 
 1.97500000e-08  2.91050414e-06  3.58468576e-05 -3.29363534e-05 
 1.98500000e-08  2.93493467e-06  3.58120828e-05 -3.28771481e-05 
 1.99500000e-08  2.96701991e-06  3.57852676e-05 -3.28182477e-05 
 2.00500000e-08  2.99141579e-06  3.57510650e-05 -3.27596492e-05 
 2.01500000e-08  3.02322340e-06  3.57245746e-05 -3.27013512e-05 
 2.02500000e-08  3.04757107e-06  3.56909218e-05 -3.26433508e-05 
 2.03500000e-08  3.07908717e-06  3.56647338e-05 -3.25856466e-05 
 2.04500000e-08  3.10337408e-06  3.56316101e-05 -3.25282360e-05 
 2.05500000e-08  3.13458801e-06  3.56057057e-05 -3.24711177e-05 
 2.06500000e-08  3.15880271e-06  3.55730918e-05 -3.24142891e-05 
 2.07500000e-08  3.18970633e-06  3.55474553e-05 -3.23577490e-05 
 2.08500000e-08  3.21383847e-06  3.55153333e-05 -3.23014949e-05 
 2.09500000e-08  3.24442568e-06  3.54899513e-05 -3.22455257e-05 
 2.10000000e-08  3.25488998e-06  3.54725370e-05 -3.22176470e-05 
 2.10100000e-08  3.26244853e-06  3.54745332e-05 -3.22120847e-05 
 2.10300000e-08  3.25861168e-06  3.54595677e-05 -3.22009560e-05 
 2.10700000e-08  3.27990249e-06  3.54586371e-05 -3.21787346e-05 
 2.11500000e-08  3.29377694e-06  3.54282136e-05 -3.21344366e-05 
 2.12500000e-08  3.32704021e-06  3.54063481e-05 -3.20793078e-05 
 2.13500000e-08  3.34883834e-06  3.53733007e-05 -3.20244623e-05 
 2.14500000e-08  3.38031813e-06  3.53502089e-05 -3.19698908e-05 
 2.15500000e-08  3.40229740e-06  3.53178910e-05 -3.19155936e-05 
 2.16500000e-08  3.44192891e-06  3.53035398e-05 -3.18616108e-05 
 2.17500000e-08  3.44598828e-06  3.52538409e-05 -3.18078526e-05 
 2.18500000e-08  3.42231044e-06  3.51763150e-05 -3.17540045e-05 
 2.19500000e-08  3.21631159e-06  3.49153351e-05 -3.16990235e-05 
 2.20000000e-08  3.18667504e-06  3.48576270e-05 -3.16709520e-05 
 2.20100000e-08  3.91016434e-06  3.55762096e-05 -3.16660453e-05 
 2.20300000e-08  6.29753570e-06  3.79561428e-05 -3.16586071e-05 
 2.20700000e-08  1.48188913e-05  4.64843017e-05 -3.16654104e-05 
 2.21500000e-08  2.30915849e-05  5.48372471e-05 -3.17456622e-05 
 2.22500000e-08  1.68113956e-05  4.86670816e-05 -3.18556860e-05 
 2.23500000e-08  1.05757443e-05  4.24790293e-05 -3.19032850e-05 
 2.24500000e-08  6.62002523e-06  3.85210728e-05 -3.19010476e-05 
 2.25500000e-08  4.99650723e-06  3.68780679e-05 -3.18815606e-05 
 2.26500000e-08  1.66216299e-06  3.35265598e-05 -3.18643969e-05 
 2.27500000e-08 -8.08816282e-07  3.10497795e-05 -3.18585958e-05 
 2.28500000e-08 -4.79623560e-06  2.70723869e-05 -3.18686225e-05 
 2.29500000e-08 -7.51246211e-06  2.43848064e-05 -3.18972685e-05 
 2.30500000e-08 -1.25138631e-05  1.94380375e-05 -3.19519006e-05 
 2.31500000e-08 -2.63890626e-05  5.70081769e-06 -3.20898803e-05 
 2.32500000e-08 -1.68313162e-05  1.54089787e-05 -3.22402949e-05 
 2.33500000e-08 -4.99584065e-07  3.17554836e-05 -3.22550676e-05 
 2.34500000e-08  2.84510866e-06  3.50126265e-05 -3.21675178e-05 
 2.35500000e-08  7.76872531e-06  3.98048828e-05 -3.20361574e-05 
 2.36500000e-08  5.35058996e-06  3.72416207e-05 -3.18910308e-05 
 2.37500000e-08  8.05498783e-06  3.97988240e-05 -3.17438362e-05 
 2.38500000e-08  5.09312067e-06  3.66910314e-05 -3.15979107e-05 
 2.39500000e-08  7.58638007e-06  3.90409201e-05 -3.14545401e-05 
 2.40500000e-08  4.72301212e-06  3.60366159e-05 -3.13136037e-05 
 2.41500000e-08  7.18812729e-06  3.83634410e-05 -3.11753137e-05 
 2.42500000e-08  4.45857580e-06  3.54978286e-05 -3.10392528e-05 
 2.43500000e-08  6.89555994e-06  3.78011128e-05 -3.09055529e-05 
 2.44500000e-08  4.28597494e-06  3.50597734e-05 -3.07737985e-05 
 2.45500000e-08  6.68460230e-06  3.73287316e-05 -3.06441293e-05 
 2.46500000e-08  4.18165288e-06  3.46978093e-05 -3.05161564e-05 
 2.47500000e-08  6.53447211e-06  3.69245051e-05 -3.03900330e-05 
 2.48500000e-08  4.12793239e-06  3.43933286e-05 -3.02653962e-05 
 2.49500000e-08  6.43011551e-06  3.65725264e-05 -3.01424109e-05 
 2.50500000e-08  4.11210438e-06  3.41328421e-05 -3.00207377e-05 
 2.51500000e-08  6.36066418e-06  3.62612147e-05 -2.99005505e-05 
 2.52500000e-08  4.12495278e-06  3.39064830e-05 -2.97815302e-05 
 2.53500000e-08  6.31817096e-06  3.59820285e-05 -2.96638575e-05 
 2.54500000e-08  4.15970408e-06  3.37069350e-05 -2.95472309e-05 
 2.55500000e-08  6.29674286e-06  3.57285787e-05 -2.94318358e-05 
 2.56500000e-08  4.21131291e-06  3.35286991e-05 -2.93173862e-05 
 2.57500000e-08  6.29195049e-06  3.54960208e-05 -2.92040703e-05 
 2.58500000e-08  4.27597310e-06  3.33675889e-05 -2.90916158e-05 
 2.59500000e-08  6.30042128e-06  3.52806337e-05 -2.89802124e-05 
 2.60000000e-08  4.35363959e-06  3.32784085e-05 -2.89247689e-05 
 2.60100000e-08  5.28000630e-06  3.41937506e-05 -2.89137443e-05 
 2.60300000e-08  5.36494795e-06  3.42566208e-05 -2.88916729e-05 
 2.60700000e-08  5.29901888e-06  3.41466505e-05 -2.88476316e-05 
 2.61500000e-08  5.38967035e-06  3.41496197e-05 -2.87599494e-05 
 2.62500000e-08  5.34998226e-06  3.40010880e-05 -2.86511058e-05 
 2.63500000e-08  5.44466900e-06  3.39877420e-05 -2.85430730e-05 
 2.64500000e-08  5.41140283e-06  3.38472291e-05 -2.84358263e-05 
 2.65500000e-08  5.50541038e-06  3.38347480e-05 -2.83293376e-05 
