 time            v(Vout+)        v(Vout-)        v(Vout+)-v(Vout-)
 0.00000000e+00  1.34461100e-10  3.65182018e-05 -3.65180673e-05 
 1.00000000e-12  1.44342362e-10  3.65182117e-05 -3.65180673e-05 
 2.00000000e-12  1.41962049e-10  3.65182093e-05 -3.65180673e-05 
 4.00000000e-12  1.37600576e-10  3.65182049e-05 -3.65180673e-05 
 8.00000000e-12  1.33331684e-10  3.65182007e-05 -3.65180673e-05 
 1.60000000e-11  1.32237468e-10  3.65181996e-05 -3.65180673e-05 
 3.20000000e-11  1.33929913e-10  3.65182013e-05 -3.65180673e-05 
 6.40000000e-11  1.34761073e-10  3.65182021e-05 -3.65180673e-05 
 1.28000000e-10  1.34394719e-10  3.65182017e-05 -3.65180673e-05 
 2.28000000e-10  1.34565106e-10  3.65182019e-05 -3.65180673e-05 
 3.28000000e-10  1.34376672e-10  3.65182017e-05 -3.65180673e-05 
 4.28000000e-10  1.34540349e-10  3.65182019e-05 -3.65180673e-05 
 5.28000000e-10  1.34371986e-10  3.65182017e-05 -3.65180673e-05 
 6.28000000e-10  1.34513866e-10  3.65182019e-05 -3.65180673e-05 
 7.28000000e-10  1.34372246e-10  3.65182017e-05 -3.65180673e-05 
 8.28000000e-10  1.34505111e-10  3.65182019e-05 -3.65180673e-05 
 9.28000000e-10  1.34379811e-10  3.65182017e-05 -3.65180673e-05 
 1.00000000e-09  1.34502548e-10  3.65182018e-05 -3.65180673e-05 
 1.01000000e-09  4.31723387e-09  3.65223887e-05 -3.65180715e-05 
 1.03000000e-09 -7.75393298e-09  3.65103138e-05 -3.65180678e-05 
 1.07000000e-09  6.03775231e-09  3.65241017e-05 -3.65180639e-05 
 1.15000000e-09 -4.34816553e-09  3.65137213e-05 -3.65180695e-05 
 1.25000000e-09  3.85193060e-09  3.65219177e-05 -3.65180657e-05 
 1.35000000e-09 -2.85418506e-09  3.65152151e-05 -3.65180693e-05 
 1.45000000e-09  3.82517177e-09  3.65218980e-05 -3.65180728e-05 
 1.55000000e-09 -6.91913869e-09  3.65111370e-05 -3.65180561e-05 
 1.65000000e-09  1.47486721e-08  3.65328423e-05 -3.65180937e-05 
 1.75000000e-09 -1.51033252e-08  3.65029871e-05 -3.65180904e-05 
 1.85000000e-09 -8.78476021e-09  3.65091862e-05 -3.65179709e-05 
 1.95000000e-09 -1.43111858e-07  3.63741054e-05 -3.65172172e-05 
 2.00000000e-09 -4.59895454e-07  3.60558277e-05 -3.65157231e-05 
 2.01000000e-09 -3.62427583e-07  3.61529371e-05 -3.65153647e-05 
 2.03000000e-09  3.43193003e-07  3.68585411e-05 -3.65153481e-05 
 2.07000000e-09  5.04917480e-06  4.15752129e-05 -3.65260381e-05 
 2.15000000e-09  1.69665119e-05  5.35797426e-05 -3.66132307e-05 
 2.25000000e-09  5.69574166e-06  4.24206003e-05 -3.67248587e-05 
 2.35000000e-09  9.47614996e-07  3.77269705e-05 -3.67793555e-05 
 2.45000000e-09 -5.85840062e-06  3.09906138e-05 -3.68490144e-05 
 2.55000000e-09 -1.41646556e-05  2.27999335e-05 -3.69645891e-05 
 2.65000000e-09 -2.24521662e-05  1.46894212e-05 -3.71415874e-05 
 2.75000000e-09  1.37129464e-05  5.08803253e-05 -3.71673788e-05 
 2.85000000e-09 -1.14421002e-05  2.56892381e-05 -3.71313383e-05 
 2.95000000e-09  1.19127088e-05  4.90128804e-05 -3.71001716e-05 
 3.05000000e-09 -1.10532251e-05  2.60121392e-05 -3.70653643e-05 
 3.15000000e-09  1.14233519e-05  4.84551684e-05 -3.70318165e-05 
 3.25000000e-09 -1.07789486e-05  2.62177886e-05 -3.69967372e-05 
 3.35000000e-09  1.10193459e-05  4.79827140e-05 -3.69633681e-05 
 3.45000000e-09 -1.04861734e-05  2.64426859e-05 -3.69288593e-05 
 3.55000000e-09  1.06495210e-05  4.75457066e-05 -3.68961857e-05 
 3.65000000e-09 -1.01845568e-05  2.66779232e-05 -3.68624800e-05 
 3.75000000e-09  1.03032689e-05  4.71338647e-05 -3.68305957e-05 
 3.85000000e-09 -9.88039954e-06  2.69173063e-05 -3.67977058e-05 
 3.95000000e-09  9.97564927e-06  4.67422314e-05 -3.67665821e-05 
 4.05000000e-09 -9.57694844e-06  2.71575080e-05 -3.67344565e-05 
 4.15000000e-09  9.66379210e-06  4.63678249e-05 -3.67040328e-05 
 4.25000000e-09 -9.27603553e-06  2.73965717e-05 -3.66726072e-05 
 4.35000000e-09  9.36579629e-06  4.60086171e-05 -3.66428209e-05 
 4.45000000e-09 -8.97879505e-06  2.76332393e-05 -3.66120343e-05 
 4.55000000e-09  9.08027636e-06  4.56631050e-05 -3.65828286e-05 
 4.65000000e-09 -8.68597698e-06  2.78666505e-05 -3.65526274e-05 
 4.75000000e-09  8.80615604e-06  4.53301093e-05 -3.65239533e-05 
 4.85000000e-09 -8.39809706e-06  2.80961943e-05 -3.64942914e-05 
 4.95000000e-09  8.54256902e-06  4.50086758e-05 -3.64661068e-05 
 5.05000000e-09 -8.11552068e-06  2.83214241e-05 -3.64369448e-05 
 5.15000000e-09  8.28880302e-06  4.46980170e-05 -3.64092140e-05 
 5.25000000e-09 -7.83850358e-06  2.85420146e-05 -3.63805182e-05 
 5.35000000e-09  8.04424645e-06  4.43974570e-05 -3.63532105e-05 
 5.45000000e-09 -7.56720484e-06  2.87577470e-05 -3.63249519e-05 
 5.55000000e-09  7.80836589e-06  4.41064070e-05 -3.62980411e-05 
 5.65000000e-09 -7.30172040e-06  2.89684742e-05 -3.62701946e-05 
 5.75000000e-09  7.58069544e-06  4.38243535e-05 -3.62436581e-05 
 5.85000000e-09 -7.04209854e-06  2.91741035e-05 -3.62162020e-05 
 5.95000000e-09  7.36082331e-06  4.35508434e-05 -3.61900200e-05 
 6.00000000e-09 -6.67811477e-06  2.94980760e-05 -3.61761908e-05 
 6.01000000e-09 -5.32436564e-08  3.61205436e-05 -3.61737873e-05 
 6.03000000e-09  4.97358510e-07  3.66658615e-05 -3.61685030e-05 
 6.07000000e-09 -1.84464392e-08  3.61394674e-05 -3.61579138e-05 
 6.15000000e-09  4.89501780e-07  3.66263377e-05 -3.61368359e-05 
 6.25000000e-09  9.51875981e-09  3.61201408e-05 -3.61106220e-05 
 6.35000000e-09  5.00966916e-07  3.65855601e-05 -3.60845931e-05 
 6.45000000e-09  3.68995749e-08  3.60956006e-05 -3.60587010e-05 
 6.55000000e-09  5.12619499e-07  3.65456016e-05 -3.60329821e-05 
 6.65000000e-09  6.57662047e-08  3.60731707e-05 -3.60074045e-05 
 6.75000000e-09  5.26955906e-07  3.65089664e-05 -3.59820105e-05 
 6.85000000e-09  9.37530680e-08  3.60504988e-05 -3.59567457e-05 
 6.95000000e-09  5.41761946e-07  3.64734168e-05 -3.59316549e-05 
 7.00000000e-09  1.17566701e-07  3.60367082e-05 -3.59191415e-05 
 7.01000000e-09  3.27443611e-07  3.62441004e-05 -3.59166568e-05 
 7.03000000e-09  3.32087131e-07  3.62437539e-05 -3.59116668e-05 
 7.07000000e-09  3.36000569e-07  3.62377066e-05 -3.59017061e-05 
 7.15000000e-09  3.47673210e-07  3.62295399e-05 -3.58818667e-05 
 7.25000000e-09  3.53571735e-07  3.62107571e-05 -3.58571854e-05 
 7.35000000e-09  3.70121586e-07  3.62027715e-05 -3.58326500e-05 
 7.45000000e-09  3.74256501e-07  3.61825032e-05 -3.58082467e-05 
 7.55000000e-09  3.92283122e-07  3.61762667e-05 -3.57839836e-05 
 7.65000000e-09  3.95378716e-07  3.61552297e-05 -3.57598510e-05 
 7.75000000e-09  4.14269158e-07  3.61501233e-05 -3.57358542e-05 
 7.85000000e-09  4.16759593e-07  3.61287452e-05 -3.57119857e-05 
 7.95000000e-09  4.36131578e-07  3.61243806e-05 -3.56882491e-05 
 8.05000000e-09  4.38290714e-07  3.61029293e-05 -3.56646386e-05 
 8.15000000e-09  4.57890799e-07  3.60990476e-05 -3.56411568e-05 
 8.25000000e-09  4.59896036e-07  3.60776950e-05 -3.56177990e-05 
 8.35000000e-09  4.79555277e-07  3.60741221e-05 -3.55945668e-05 
 8.45000000e-09  4.81521126e-07  3.60529776e-05 -3.55714565e-05 
 8.55000000e-09  5.01123029e-07  3.60495923e-05 -3.55484693e-05 
 8.65000000e-09  5.03125286e-07  3.60287272e-05 -3.55256020e-05 
 8.75000000e-09  5.22589272e-07  3.60254446e-05 -3.55028553e-05 
 8.85000000e-09  5.24676645e-07  3.60049033e-05 -3.54802266e-05 
 8.95000000e-09  5.43947572e-07  3.60016641e-05 -3.54577166e-05 
 9.05000000e-09  5.46150232e-07  3.59814728e-05 -3.54353226e-05 
 9.15000000e-09  5.65190211e-07  3.59782354e-05 -3.54130452e-05 
 9.25000000e-09  5.67526458e-07  3.59584086e-05 -3.53908821e-05 
 9.35000000e-09  5.86309843e-07  3.59551438e-05 -3.53688339e-05 
 9.45000000e-09  5.88789318e-07  3.59356877e-05 -3.53468984e-05 
 9.55000000e-09  6.07299394e-07  3.59323753e-05 -3.53250760e-05 
 9.65000000e-09  6.09925971e-07  3.59132906e-05 -3.53033646e-05 
 9.75000000e-09  6.28152263e-07  3.59099171e-05 -3.52817648e-05 
 9.85000000e-09  6.30926101e-07  3.58912007e-05 -3.52602746e-05 
 9.95000000e-09  6.48862443e-07  3.58877568e-05 -3.52388943e-05 
 1.00500000e-08  6.51781258e-07  3.58694036e-05 -3.52176223e-05 
 1.01500000e-08  6.69424656e-07  3.58658834e-05 -3.51964588e-05 
 1.02500000e-08  6.72484603e-07  3.58478867e-05 -3.51754020e-05 
 1.03500000e-08  6.89834258e-07  3.58442867e-05 -3.51544525e-05 
 1.04500000e-08  6.93030575e-07  3.58266390e-05 -3.51336084e-05 
 1.05500000e-08  7.10087285e-07  3.58229574e-05 -3.51128701e-05 
 1.06500000e-08  7.13414681e-07  3.58056508e-05 -3.50922361e-05 
 1.07500000e-08  7.30180379e-07  3.58018870e-05 -3.50717066e-05 
 1.08500000e-08  7.33633274e-07  3.57849134e-05 -3.50512801e-05 
 1.09500000e-08  7.50110723e-07  3.57810677e-05 -3.50309570e-05 
 1.10000000e-08  7.48761569e-07  3.57695950e-05 -3.50208335e-05 
 1.10100000e-08  7.56514364e-07  3.57753306e-05 -3.50188162e-05 
 1.10300000e-08  7.48005824e-07  3.57627787e-05 -3.50147729e-05 
 1.10700000e-08  7.63932308e-07  3.57706337e-05 -3.50067014e-05 
 1.11500000e-08  7.62867023e-07  3.57534857e-05 -3.49906186e-05 
 1.12500000e-08  7.79854014e-07  3.57504510e-05 -3.49705970e-05 
 1.13500000e-08  7.83852038e-07  3.57345343e-05 -3.49506823e-05 
 1.14500000e-08  7.98853634e-07  3.57297181e-05 -3.49308645e-05 
 1.15500000e-08  8.03570154e-07  3.57147173e-05 -3.49111471e-05 
 1.16500000e-08  8.25488262e-07  3.57170526e-05 -3.48915644e-05 
 1.17500000e-08  8.14911749e-07  3.56869517e-05 -3.48720399e-05 
 1.18500000e-08  7.99880027e-07  3.56522708e-05 -3.48523907e-05 
 1.19500000e-08  6.65685662e-07  3.54976893e-05 -3.48320036e-05 
 1.20000000e-08  2.17603199e-07  3.50379688e-05 -3.48203656e-05 
 1.20100000e-08  3.99724609e-07  3.52177225e-05 -3.48179979e-05 
 1.20300000e-08  1.30164239e-06  3.61158025e-05 -3.48141601e-05 
 1.20700000e-08  6.51909282e-06  4.13377333e-05 -3.48186404e-05 
 1.21500000e-08  1.95671109e-05  5.44671869e-05 -3.49000759e-05 
 1.22500000e-08  1.56476847e-05  5.06946491e-05 -3.50469644e-05 
 1.23500000e-08  6.60262125e-06  4.17318839e-05 -3.51292627e-05 
 1.24500000e-08  4.42327476e-06  3.95828707e-05 -3.51595959e-05 
 1.25500000e-08  5.25776021e-07  3.57068871e-05 -3.51811111e-05 
 1.26500000e-08 -2.27123476e-06  3.29414250e-05 -3.52126597e-05 
 1.27500000e-08 -7.18746277e-06  2.80753640e-05 -3.52628268e-05 
 1.28500000e-08 -1.05169685e-05  2.48187980e-05 -3.53357665e-05 
 1.29500000e-08 -1.84888128e-05  1.69613426e-05 -3.54501555e-05 
 1.30500000e-08 -3.02763133e-05  5.37414276e-06 -3.56504560e-05 
 1.31500000e-08 -1.38467116e-06  3.43714033e-05 -3.57560745e-05 
 1.32500000e-08 -4.86548225e-06  3.08630867e-05 -3.57285690e-05 
 1.33500000e-08  7.95754796e-06  4.36078576e-05 -3.56503096e-05 
 1.34500000e-08 -2.52590376e-06  3.30319682e-05 -3.55578719e-05 
 1.35500000e-08  7.94919081e-06  4.34131832e-05 -3.54639924e-05 
 1.36500000e-08 -2.60093832e-06  3.27687623e-05 -3.53697006e-05 
 1.37500000e-08  7.49257281e-06  4.27699255e-05 -3.52773526e-05 
 1.38500000e-08 -2.70205655e-06  3.24834549e-05 -3.51855114e-05 
 1.39500000e-08  7.10078554e-06  4.21966413e-05 -3.50958558e-05 
 1.40500000e-08 -2.73934609e-06  3.22674411e-05 -3.50067871e-05 
 1.41500000e-08  6.77673249e-06  4.16965926e-05 -3.49198601e-05 
 1.42500000e-08 -2.72531685e-06  3.21081523e-05 -3.48334691e-05 
 1.43500000e-08  6.50610688e-06  4.12552133e-05 -3.47491065e-05 
 1.44500000e-08 -2.67290747e-06  3.19922830e-05 -3.46651905e-05 
 1.45500000e-08  6.27722825e-06  4.08604000e-05 -3.45831717e-05 
 1.46500000e-08 -2.59205885e-06  3.19094451e-05 -3.45015039e-05 
 1.47500000e-08  6.08122727e-06  4.05028318e-05 -3.44216046e-05 
 1.48500000e-08 -2.49020796e-06  3.18517588e-05 -3.43419668e-05 
 1.49500000e-08  5.91143314e-06  4.01754121e-05 -3.42639790e-05 
 1.50500000e-08 -2.37289569e-06  3.18132786e-05 -3.41861743e-05 
 1.51500000e-08  5.76281660e-06  3.98727303e-05 -3.41099137e-05 
 1.52500000e-08 -2.24426335e-06  3.17895062e-05 -3.40337696e-05 
 1.53500000e-08  5.63155658e-06  3.95906327e-05 -3.39590761e-05 
 1.54500000e-08 -2.10742667e-06  3.17770171e-05 -3.38844438e-05 
 1.55500000e-08  5.51471941e-06  3.93258994e-05 -3.38111800e-05 
 1.56500000e-08 -1.96474891e-06  3.17731830e-05 -3.37379319e-05 
 1.57500000e-08  5.41002598e-06  3.90760063e-05 -3.36659803e-05 
 1.58500000e-08 -1.81803790e-06  3.17759695e-05 -3.35940074e-05 
 1.59500000e-08  5.31568397e-06  3.88389516e-05 -3.35232677e-05 
 1.60000000e-08 -1.61814104e-06  3.18695069e-05 -3.34876480e-05 
 1.60100000e-08  1.64957232e-06  3.51303217e-05 -3.34807494e-05 
 1.60300000e-08  1.93724056e-06  3.54039285e-05 -3.34666880e-05 
 1.60700000e-08  1.67453709e-06  3.51131462e-05 -3.34386091e-05 
 1.61500000e-08  1.94538636e-06  3.53281056e-05 -3.33827193e-05 
 1.62500000e-08  1.71218502e-06  3.50255177e-05 -3.33133327e-05 
 1.63500000e-08  1.97747823e-06  3.52219548e-05 -3.32444766e-05 
 1.64500000e-08  1.75475770e-06  3.49308687e-05 -3.31761110e-05 
 1.65500000e-08  2.01279214e-06  3.51210331e-05 -3.31082410e-05 
 1.66500000e-08  1.80117876e-06  3.48420180e-05 -3.30408392e-05 
 1.67500000e-08  2.05312089e-06  3.50270415e-05 -3.29739207e-05 
 1.68500000e-08  1.84981362e-06  3.47572590e-05 -3.29074454e-05 
 1.69500000e-08  2.09576500e-06  3.49371926e-05 -3.28414276e-05 
 1.70000000e-08  1.88864799e-06  3.46972161e-05 -3.28085681e-05 
 1.70100000e-08  1.99893792e-06  3.48009578e-05 -3.28020199e-05 
 1.70300000e-08  2.00048636e-06  3.47894009e-05 -3.27889146e-05 
 1.70700000e-08  2.01483247e-06  3.47775889e-05 -3.27627565e-05 
 1.71500000e-08  2.03188155e-06  3.47425336e-05 -3.27106520e-05 
 1.72500000e-08  2.05710354e-06  3.47029878e-05 -3.26458843e-05 
 1.73500000e-08  2.08198293e-06  3.46635087e-05 -3.25815258e-05 
 1.74500000e-08  2.10615283e-06  3.46237115e-05 -3.25175587e-05 
 1.75500000e-08  2.13294085e-06  3.45869244e-05 -3.24539836e-05 
 1.76500000e-08  2.15658340e-06  3.45473703e-05 -3.23907869e-05 
 1.77500000e-08  2.18464674e-06  3.45126143e-05 -3.23279676e-05 
 1.78500000e-08  2.20803736e-06  3.44735522e-05 -3.22655148e-05 
 1.79500000e-08  2.23696148e-06  3.44403882e-05 -3.22034268e-05 
 1.80500000e-08  2.26025418e-06  3.44019486e-05 -3.21416944e-05 
 1.81500000e-08  2.28975183e-06  3.43700674e-05 -3.20803156e-05 
 1.82500000e-08  2.31302916e-06  3.43323118e-05 -3.20192827e-05 
 1.83500000e-08  2.34289239e-06  3.43014856e-05 -3.19585933e-05 
 1.84500000e-08  2.36619793e-06  3.42644388e-05 -3.18982409e-05 
 1.85500000e-08  2.39627247e-06  3.42344956e-05 -3.18382231e-05 
 1.86500000e-08  2.41962505e-06  3.41981594e-05 -3.17785343e-05 
 1.87500000e-08  2.44979557e-06  3.41689676e-05 -3.17191721e-05 
 1.88500000e-08  2.47319822e-06  3.41333296e-05 -3.16601314e-05 
 1.89500000e-08  2.50337708e-06  3.41047871e-05 -3.16014100e-05 
 1.90500000e-08  2.52682409e-06  3.40698276e-05 -3.15430035e-05 
 1.91500000e-08  2.55694398e-06  3.40418535e-05 -3.14849096e-05 
 1.92500000e-08  2.58042405e-06  3.40075483e-05 -3.14271243e-05 
 1.93500000e-08  2.61043310e-06  3.39800786e-05 -3.13696455e-05 
 1.94500000e-08  2.63393200e-06  3.39464017e-05 -3.13124697e-05 
 1.95500000e-08  2.66378996e-06  3.39193848e-05 -3.12555948e-05 
 1.96500000e-08  2.68729222e-06  3.38863097e-05 -3.11990175e-05 
 1.97500000e-08  2.71696750e-06  3.38597035e-05 -3.11427360e-05 
 1.98500000e-08  2.74045757e-06  3.38272046e-05 -3.10867471e-05 
 1.99500000e-08  2.76992539e-06  3.38009745e-05 -3.10310491e-05 
 2.00500000e-08  2.79338821e-06  3.37690273e-05 -3.09756391e-05 
 2.01500000e-08  2.82262891e-06  3.37431445e-05 -3.09205156e-05 
 2.02500000e-08  2.84605030e-06  3.37117260e-05 -3.08656757e-05 
 2.03500000e-08  2.87504838e-06  3.36861663e-05 -3.08111180e-05 
 2.04500000e-08  2.89841523e-06  3.36552550e-05 -3.07568398e-05 
 2.05500000e-08  2.92715842e-06  3.36299982e-05 -3.07028397e-05 
 2.06500000e-08  2.95045880e-06  3.35995742e-05 -3.06491154e-05 
 2.07500000e-08  2.97893742e-06  3.35746028e-05 -3.05956654e-05 
 2.08500000e-08  3.00216051e-06  3.35446479e-05 -3.05424873e-05 
 2.09500000e-08  3.03036702e-06  3.35199471e-05 -3.04895801e-05 
 2.10000000e-08  3.04073673e-06  3.35039639e-05 -3.04632271e-05 
 2.10100000e-08  3.04778071e-06  3.35057501e-05 -3.04579694e-05 
 2.10300000e-08  3.04359345e-06  3.34910431e-05 -3.04474497e-05 
 2.10700000e-08  3.06430144e-06  3.34907461e-05 -3.04264447e-05 
 2.11500000e-08  3.07677681e-06  3.34613494e-05 -3.03845726e-05 
 2.12500000e-08  3.10853943e-06  3.34410028e-05 -3.03324634e-05 
 2.13500000e-08  3.12860164e-06  3.34092249e-05 -3.02806233e-05 
 2.14500000e-08  3.15866753e-06  3.33877108e-05 -3.02290433e-05 
 2.15500000e-08  3.17913953e-06  3.33568643e-05 -3.01777248e-05 
 2.16500000e-08  3.21593330e-06  3.33426339e-05 -3.01267006e-05 
 2.17500000e-08  3.22131126e-06  3.32972063e-05 -3.00758950e-05 
 2.18500000e-08  3.22602733e-06  3.32511758e-05 -3.00251485e-05 
 2.19500000e-08  3.09464813e-06  3.30684297e-05 -2.99737815e-05 
 2.20000000e-08  2.65446049e-06  3.26011415e-05 -2.99466810e-05 
 2.20100000e-08  2.83655258e-06  3.27777774e-05 -2.99412249e-05 
 2.20300000e-08  3.71288996e-06  3.36440755e-05 -2.99311855e-05 
 2.20700000e-08  8.70501152e-06  3.86277887e-05 -2.99227771e-05 
 2.21500000e-08  2.27001080e-05  5.26814956e-05 -2.99813876e-05 
 2.22500000e-08  2.02556821e-05  5.03675143e-05 -3.01118322e-05 
 2.23500000e-08  1.10835580e-05  4.12678477e-05 -3.01842897e-05 
 2.24500000e-08  7.62262624e-06  3.78178835e-05 -3.01952572e-05 
 2.25500000e-08  4.62736394e-06  3.48148122e-05 -3.01874482e-05 
 2.26500000e-08  1.76890720e-06  3.19515906e-05 -3.01826834e-05 
 2.27500000e-08 -2.04611523e-06  2.81448196e-05 -3.01909348e-05 
 2.28500000e-08 -5.57278339e-06  2.46438219e-05 -3.02166053e-05 
 2.29500000e-08 -9.45567669e-06  2.08072621e-05 -3.02629388e-05 
 2.30500000e-08 -1.62161543e-05  1.41325716e-05 -3.03487258e-05 
 2.31500000e-08 -2.94003706e-05  1.12226804e-06 -3.05226386e-05 
 2.32500000e-08 -4.31350648e-06  2.63147455e-05 -3.06282520e-05 
 2.33500000e-08 -3.11967130e-06  2.74772805e-05 -3.05969518e-05 
 2.34500000e-08  8.99939552e-06  3.94946950e-05 -3.04952995e-05 
 2.35500000e-08  1.59270388e-06  3.19607292e-05 -3.03680253e-05 
 2.36500000e-08  9.93336984e-06  4.01681396e-05 -3.02347697e-05 
 2.37500000e-08  1.72441707e-06  3.18248640e-05 -3.01004470e-05 
 2.38500000e-08  9.53235502e-06  3.95003085e-05 -2.99679534e-05 
 2.39500000e-08  1.54933601e-06  3.13860496e-05 -2.98367135e-05 
 2.40500000e-08  9.12758518e-06  3.88354830e-05 -2.97078979e-05 
 2.41500000e-08  1.43564726e-06  3.10160863e-05 -2.95804391e-05 
 2.42500000e-08  8.80238356e-06  3.82577012e-05 -2.94553177e-05 
 2.43500000e-08  1.38953940e-06  3.07209737e-05 -2.93314343e-05 
 2.44500000e-08  8.54388061e-06  3.77536048e-05 -2.92097242e-05 
 2.45500000e-08  1.39531262e-06  3.04844192e-05 -2.90891066e-05 
 2.46500000e-08  8.33706353e-06  3.73075574e-05 -2.89704938e-05 
 2.47500000e-08  1.43990002e-06  3.02927336e-05 -2.88528336e-05 
 2.48500000e-08  8.17039539e-06  3.69074171e-05 -2.87370218e-05 
 2.49500000e-08  1.51352963e-06  3.01355668e-05 -2.86220372e-05 
 2.50500000e-08  8.03525852e-06  3.65440198e-05 -2.85087613e-05 
 2.51500000e-08  1.60894094e-06  3.00051450e-05 -2.83962041e-05 
 2.52500000e-08  7.92519511e-06  3.62104282e-05 -2.82852331e-05 
 2.53500000e-08  1.72071091e-06  2.98955993e-05 -2.81748883e-05 
 2.54500000e-08  7.83532387e-06  3.59013472e-05 -2.80660233e-05 
 2.55500000e-08  1.84475626e-06  2.98024627e-05 -2.79577065e-05 
 2.56500000e-08  7.76191619e-06  3.56126931e-05 -2.78507770e-05 
 2.57500000e-08  1.97797457e-06  2.97223047e-05 -2.77443302e-05 
 2.58500000e-08  7.70209167e-06  3.53412821e-05 -2.76391905e-05 
 2.59500000e-08  2.11798697e-06  2.96524658e-05 -2.75344788e-05 
 2.60000000e-08  7.59433500e-06  3.50770788e-05 -2.74827438e-05 
 2.60100000e-08  5.01951152e-06  3.24917923e-05 -2.74722807e-05 
 2.60300000e-08  4.81910933e-06  3.22706834e-05 -2.74515741e-05 
 2.60700000e-08  5.02410028e-06  3.24343747e-05 -2.74102744e-05 
 2.61500000e-08  4.85174305e-06  3.21797623e-05 -2.73280193e-05 
 2.62500000e-08  5.07154080e-06  3.22974518e-05 -2.72259110e-05 
 2.63500000e-08  4.91037836e-06  3.20349115e-05 -2.71245332e-05 
 2.64500000e-08  5.12801886e-06  3.21519062e-05 -2.70238873e-05 
 2.65500000e-08  4.97338086e-06  3.18973076e-05 -2.69239268e-05 
