 time            v(Vout+)        v(Vout-)        v(vout+)-v(vout-)
 0.00000000e+00  1.77451358e-10  3.98840075e-05 -3.98838301e-05 
 1.00000000e-12  1.86050958e-10  3.98840161e-05 -3.98838301e-05 
 2.00000000e-12  1.84421297e-10  3.98840145e-05 -3.98838301e-05 
 4.00000000e-12  1.80549080e-10  3.98840106e-05 -3.98838301e-05 
 8.00000000e-12  1.76310693e-10  3.98840064e-05 -3.98838301e-05 
 1.60000000e-11  1.75444797e-10  3.98840055e-05 -3.98838301e-05 
 3.20000000e-11  1.76912647e-10  3.98840070e-05 -3.98838301e-05 
 6.40000000e-11  1.77784164e-10  3.98840078e-05 -3.98838301e-05 
 1.28000000e-10  1.77323598e-10  3.98840074e-05 -3.98838301e-05 
 2.28000000e-10  1.77607792e-10  3.98840077e-05 -3.98838301e-05 
 3.28000000e-10  1.77316760e-10  3.98840074e-05 -3.98838301e-05 
 4.28000000e-10  1.77577740e-10  3.98840076e-05 -3.98838301e-05 
 5.28000000e-10  1.77315243e-10  3.98840074e-05 -3.98838301e-05 
 6.28000000e-10  1.77560533e-10  3.98840076e-05 -3.98838301e-05 
 7.28000000e-10  1.77313812e-10  3.98840074e-05 -3.98838301e-05 
 8.28000000e-10  1.77551541e-10  3.98840076e-05 -3.98838301e-05 
 9.28000000e-10  1.77319044e-10  3.98840074e-05 -3.98838301e-05 
 1.00000000e-09  1.77539413e-10  3.98840076e-05 -3.98838301e-05 
 1.01000000e-09  4.32173598e-09  3.98881546e-05 -3.98838328e-05 
 1.03000000e-09 -7.65018322e-09  3.98761802e-05 -3.98838303e-05 
 1.07000000e-09  6.01538003e-09  3.98898431e-05 -3.98838278e-05 
 1.15000000e-09 -4.22050627e-09  3.98796110e-05 -3.98838315e-05 
 1.25000000e-09  3.78856070e-09  3.98876175e-05 -3.98838290e-05 
 1.35000000e-09 -2.70522420e-09  3.98811261e-05 -3.98838313e-05 
 1.45000000e-09  3.65527266e-09  3.98874886e-05 -3.98838333e-05 
 1.55000000e-09 -6.19885666e-09  3.98776249e-05 -3.98838237e-05 
 1.65000000e-09  1.45754093e-08  3.98984257e-05 -3.98838503e-05 
 1.75000000e-09 -1.77844610e-08  3.98660540e-05 -3.98838384e-05 
 1.85000000e-09 -4.35656450e-09  3.98794077e-05 -3.98837642e-05 
 1.95000000e-09 -1.16727408e-07  3.97666359e-05 -3.98833633e-05 
 2.00000000e-09 -4.92721053e-07  3.93896357e-05 -3.98823567e-05 
 2.01000000e-09 -4.08817516e-07  3.94732696e-05 -3.98820871e-05 
 2.03000000e-09  1.85861991e-07  4.00678030e-05 -3.98819410e-05 
 2.07000000e-09  4.53197901e-06  4.44201528e-05 -3.98881738e-05 
 2.15000000e-09  1.68326129e-05  5.67771893e-05 -3.99445765e-05 
 2.25000000e-09  6.64733938e-06  4.66690294e-05 -4.00216900e-05 
 2.35000000e-09  5.53665433e-07  4.06113901e-05 -4.00577247e-05 
 2.45000000e-09 -4.60176278e-06  3.54996941e-05 -4.01014568e-05 
 2.55000000e-09 -1.38539571e-05  2.63195156e-05 -4.01734727e-05 
 2.65000000e-09 -2.34251761e-05  1.68684881e-05 -4.02936642e-05 
 2.75000000e-09  1.11063473e-05  5.14290508e-05 -4.03227035e-05 
 2.85000000e-09 -8.34383951e-06  3.19528222e-05 -4.02966617e-05 
 2.95000000e-09  9.33239556e-06  4.96061194e-05 -4.02737239e-05 
 3.05000000e-09 -8.15266989e-06  3.20961072e-05 -4.02487771e-05 
 3.15000000e-09  8.96040753e-06  4.91847392e-05 -4.02243316e-05 
 3.25000000e-09 -8.06205361e-06  3.21372297e-05 -4.01992833e-05 
 3.35000000e-09  8.67098761e-06  4.88460451e-05 -4.01750574e-05 
 3.45000000e-09 -7.94099977e-06  3.22094645e-05 -4.01504643e-05 
 3.55000000e-09  8.41550632e-06  4.85422820e-05 -4.01267756e-05 
 3.65000000e-09 -7.80087183e-06  3.23018932e-05 -4.01027650e-05 
 3.75000000e-09  8.18269877e-06  4.82623473e-05 -4.00796486e-05 
 3.85000000e-09 -7.64922639e-06  3.24069778e-05 -4.00562042e-05 
 3.95000000e-09  7.96682437e-06  4.80004430e-05 -4.00336186e-05 
 4.05000000e-09 -7.49036952e-06  3.25203178e-05 -4.00106873e-05 
 4.15000000e-09  7.76440248e-06  4.77529783e-05 -3.99885758e-05 
 4.25000000e-09 -7.32698132e-06  3.26391197e-05 -3.99661010e-05 
 4.35000000e-09  7.57310583e-06  4.75175155e-05 -3.99444097e-05 
 4.45000000e-09 -7.16086712e-06  3.27614735e-05 -3.99223407e-05 
 4.55000000e-09  7.39126517e-06  4.72922880e-05 -3.99010228e-05 
 4.65000000e-09 -6.99331281e-06  3.28860037e-05 -3.98793165e-05 
 4.75000000e-09  7.21762475e-06  4.70759575e-05 -3.98583328e-05 
 4.85000000e-09 -6.82526766e-06  3.30116853e-05 -3.98369530e-05 
 4.95000000e-09  7.05120902e-06  4.68674796e-05 -3.98162706e-05 
 5.05000000e-09 -6.65744829e-06  3.31377389e-05 -3.97951872e-05 
 5.15000000e-09  6.89124301e-06  4.66660216e-05 -3.97747786e-05 
 5.25000000e-09 -6.49040295e-06  3.32635632e-05 -3.97539662e-05 
 5.35000000e-09  6.73710065e-06  4.64709090e-05 -3.97338084e-05 
 5.45000000e-09 -6.32455480e-06  3.33886909e-05 -3.97132457e-05 
 5.55000000e-09  6.58826918e-06  4.62815884e-05 -3.96933192e-05 
 5.65000000e-09 -6.16023093e-06  3.35127572e-05 -3.96729881e-05 
 5.75000000e-09  6.44432305e-06  4.60975995e-05 -3.96532764e-05 
 5.85000000e-09 -5.99768437e-06  3.36354773e-05 -3.96331617e-05 
 5.95000000e-09  6.30490544e-06  4.59185562e-05 -3.96136508e-05 
 6.00000000e-09 -5.76682587e-06  3.38367341e-05 -3.96035600e-05 
 6.01000000e-09  1.35035754e-08  3.96152140e-05 -3.96017104e-05 
 6.03000000e-09  3.76848952e-07  3.99746379e-05 -3.95977890e-05 
 6.07000000e-09  3.19462426e-08  3.96218906e-05 -3.95899444e-05 
 6.15000000e-09  3.71518380e-07  3.99458170e-05 -3.95742986e-05 
 6.25000000e-09  4.98361507e-08  3.96046582e-05 -3.95548221e-05 
 6.35000000e-09  3.79627926e-07  3.99150677e-05 -3.95354398e-05 
 6.45000000e-09  6.68277042e-08  3.95829629e-05 -3.95161352e-05 
 6.55000000e-09  3.87652166e-07  3.98845676e-05 -3.94969155e-05 
 6.65000000e-09  8.69262916e-08  3.95647085e-05 -3.94777822e-05 
 6.75000000e-09  3.98978279e-07  3.98577229e-05 -3.94587446e-05 
 6.85000000e-09  1.05255953e-07  3.95450357e-05 -3.94397797e-05 
 6.95000000e-09  4.10822529e-07  3.98317252e-05 -3.94209026e-05 
 7.00000000e-09  1.19872461e-07  3.95313561e-05 -3.94114837e-05 
 7.01000000e-09  2.67230205e-07  3.96768388e-05 -3.94096086e-05 
 7.03000000e-09  2.64393774e-07  3.96702416e-05 -3.94058479e-05 
 7.07000000e-09  2.73387923e-07  3.96717249e-05 -3.93983370e-05 
 7.15000000e-09  2.76685113e-07  3.96600454e-05 -3.93833603e-05 
 7.25000000e-09  2.85460449e-07  3.96501608e-05 -3.93647004e-05 
 7.35000000e-09  2.93454722e-07  3.96395729e-05 -3.93461181e-05 
 7.45000000e-09  3.00217464e-07  3.96278221e-05 -3.93276047e-05 
 7.55000000e-09  3.10052387e-07  3.96192178e-05 -3.93091654e-05 
 7.65000000e-09  3.15563470e-07  3.96063576e-05 -3.92907941e-05 
 7.75000000e-09  3.26585925e-07  3.95990802e-05 -3.92724943e-05 
 7.85000000e-09  3.31307047e-07  3.95855685e-05 -3.92542614e-05 
 7.95000000e-09  3.43102932e-07  3.95792007e-05 -3.92360978e-05 
 8.05000000e-09  3.47327156e-07  3.95653271e-05 -3.92180000e-05 
 8.15000000e-09  3.59624445e-07  3.95595939e-05 -3.91999695e-05 
 8.25000000e-09  3.63541595e-07  3.95455453e-05 -3.91820037e-05 
 8.35000000e-09  3.76152765e-07  3.95402565e-05 -3.91641037e-05 
 8.45000000e-09  3.79890930e-07  3.95261583e-05 -3.91462673e-05 
 8.55000000e-09  3.92684813e-07  3.95211801e-05 -3.91284953e-05 
 8.65000000e-09  3.96329242e-07  3.95071152e-05 -3.91107860e-05 
 8.75000000e-09  4.09213733e-07  3.95023535e-05 -3.90931398e-05 
 8.85000000e-09  4.12821383e-07  3.94883767e-05 -3.90755553e-05 
 8.95000000e-09  4.25731459e-07  3.94837643e-05 -3.90580328e-05 
 9.05000000e-09  4.29339627e-07  3.94699109e-05 -3.90405713e-05 
 9.15000000e-09  4.42228855e-07  3.94653997e-05 -3.90231708e-05 
 9.25000000e-09  4.45862193e-07  3.94516926e-05 -3.90058304e-05 
 9.35000000e-09  4.58697414e-07  3.94472476e-05 -3.89885502e-05 
 9.45000000e-09  4.62371269e-07  3.94337006e-05 -3.89713293e-05 
 9.55000000e-09  4.75129011e-07  3.94292969e-05 -3.89541679e-05 
 9.65000000e-09  4.78852550e-07  3.94159176e-05 -3.89370650e-05 
 9.75000000e-09  4.91516138e-07  3.94115370e-05 -3.89200209e-05 
 9.85000000e-09  4.95294416e-07  3.93983291e-05 -3.89030347e-05 
 9.95000000e-09  5.07852018e-07  3.93939585e-05 -3.88861065e-05 
 1.00500000e-08  5.11687325e-07  3.93809230e-05 -3.88692357e-05 
 1.01500000e-08  5.24130640e-07  3.93765529e-05 -3.88524223e-05 
 1.02500000e-08  5.28023459e-07  3.93636891e-05 -3.88356657e-05 
 1.03500000e-08  5.40346677e-07  3.93593125e-05 -3.88189658e-05 
 1.04500000e-08  5.44296329e-07  3.93466186e-05 -3.88023223e-05 
 1.05500000e-08  5.56495504e-07  3.93422304e-05 -3.87857349e-05 
 1.06500000e-08  5.60500589e-07  3.93297039e-05 -3.87692033e-05 
 1.07500000e-08  5.72573125e-07  3.93253006e-05 -3.87527275e-05 
 1.08500000e-08  5.76631769e-07  3.93129386e-05 -3.87363068e-05 
 1.09500000e-08  5.88576079e-07  3.93085175e-05 -3.87199414e-05 
 1.10000000e-08  5.88713474e-07  3.93004927e-05 -3.87117793e-05 
 1.10100000e-08  5.95094623e-07  3.93052459e-05 -3.87101513e-05 
 1.10300000e-08  5.86182921e-07  3.92930722e-05 -3.87068892e-05 
 1.10700000e-08  6.01266823e-07  3.93016405e-05 -3.87003736e-05 
 1.11500000e-08  5.98768414e-07  3.92861449e-05 -3.86873765e-05 
 1.12500000e-08  6.13681246e-07  3.92848539e-05 -3.86711727e-05 
 1.13500000e-08  6.15969229e-07  3.92709967e-05 -3.86550274e-05 
 1.14500000e-08  6.28873089e-07  3.92678071e-05 -3.86389340e-05 
 1.15500000e-08  6.32117735e-07  3.92550133e-05 -3.86228955e-05 
 1.16500000e-08  6.49010152e-07  3.92559352e-05 -3.86069251e-05 
 1.17500000e-08  6.46322404e-07  3.92373252e-05 -3.85910028e-05 
 1.18500000e-08  6.27138152e-07  3.92021477e-05 -3.85750095e-05 
 1.19500000e-08  5.14419856e-07  3.90730014e-05 -3.85585815e-05 
 1.20000000e-08  7.39839841e-08  3.86234369e-05 -3.85494529e-05 
 1.20100000e-08  1.58532691e-07  3.87060708e-05 -3.85475381e-05 
 1.20300000e-08  7.30392346e-07  3.92744801e-05 -3.85440877e-05 
 1.20700000e-08  4.95618236e-06  4.34997224e-05 -3.85435401e-05 
 1.21500000e-08  1.86749795e-05  5.72648943e-05 -3.85899148e-05 
 1.22500000e-08  1.69777529e-05  5.56652787e-05 -3.86875258e-05 
 1.23500000e-08  6.87647454e-06  4.56223705e-05 -3.87458960e-05 
 1.24500000e-08  4.47597985e-06  4.32408364e-05 -3.87648566e-05 
 1.25500000e-08  3.45999593e-07  3.91223537e-05 -3.87763541e-05 
 1.26500000e-08 -2.53417502e-06  3.62602190e-05 -3.87943940e-05 
 1.27500000e-08 -7.62135804e-06  3.12033664e-05 -3.88247244e-05 
 1.28500000e-08 -1.09130618e-05  2.79570591e-05 -3.88701209e-05 
 1.29500000e-08 -1.93688611e-05  1.95755512e-05 -3.89444123e-05 
 1.30500000e-08 -3.10290713e-05  8.04826288e-06 -3.90773341e-05 
 1.31500000e-08 -1.24430308e-06  3.78996581e-05 -3.91439611e-05 
 1.32500000e-08 -5.09871599e-06  3.40214042e-05 -3.91201202e-05 
 1.33500000e-08  8.50652131e-06  4.75675004e-05 -3.90609791e-05 
 1.34500000e-08 -2.71493908e-06  3.62771953e-05 -3.89921344e-05 
 1.35500000e-08  8.47529374e-06  4.73975859e-05 -3.89222921e-05 
 1.36500000e-08 -2.91891451e-06  3.59335922e-05 -3.88525067e-05 
 1.37500000e-08  7.96073143e-06  4.67448283e-05 -3.87840968e-05 
 1.38500000e-08 -3.13480509e-06  3.55815011e-05 -3.87163062e-05 
 1.39500000e-08  7.53001181e-06  4.61799947e-05 -3.86499829e-05 
 1.40500000e-08 -3.26517734e-06  3.53190789e-05 -3.85842562e-05 
 1.41500000e-08  7.18196134e-06  4.57018745e-05 -3.85199131e-05 
 1.42500000e-08 -3.32853807e-06  3.51275399e-05 -3.84560780e-05 
 1.43500000e-08  6.89699323e-06  4.52905090e-05 -3.83935158e-05 
 1.44500000e-08 -3.34231170e-06  3.49890523e-05 -3.83313640e-05 
 1.45500000e-08  6.65992920e-06  4.49303051e-05 -3.82703759e-05 
 1.46500000e-08 -3.31938651e-06  3.48903211e-05 -3.82097076e-05 
 1.47500000e-08  6.45964095e-06  4.46097449e-05 -3.81501040e-05 
 1.48500000e-08 -3.26915918e-06  3.48215818e-05 -3.80907410e-05 
 1.49500000e-08  6.28797730e-06  4.43203337e-05 -3.80323564e-05 
 1.50500000e-08 -3.19850692e-06  3.47756389e-05 -3.79741458e-05 
 1.51500000e-08  6.13892120e-06  4.40557607e-05 -3.79168395e-05 
 1.52500000e-08 -3.11250763e-06  3.47471442e-05 -3.78596519e-05 
 1.53500000e-08  6.00798121e-06  4.38112866e-05 -3.78033053e-05 
 1.54500000e-08 -3.01495144e-06  3.47320806e-05 -3.77470321e-05 
 1.55500000e-08  5.89176237e-06  4.35833084e-05 -3.76915461e-05 
 1.56500000e-08 -2.90869974e-06  3.47273965e-05 -3.76360963e-05 
 1.57500000e-08  5.78766530e-06  4.33690531e-05 -3.75813878e-05 
 1.58500000e-08 -2.79593711e-06  3.47307482e-05 -3.75266853e-05 
 1.59500000e-08  5.69367452e-06  4.31663593e-05 -3.74726848e-05 
 1.60000000e-08 -2.63145895e-06  3.48140893e-05 -3.74455483e-05 
 1.60100000e-08  1.35367085e-06  3.87939191e-05 -3.74402482e-05 
 1.60300000e-08  1.60956169e-06  3.90390599e-05 -3.74294982e-05 
 1.60700000e-08  1.36927844e-06  3.87773062e-05 -3.74080278e-05 
 1.61500000e-08  1.61073246e-06  3.89759670e-05 -3.73652345e-05 
 1.62500000e-08  1.39214172e-06  3.87041596e-05 -3.73120179e-05 
 1.63500000e-08  1.62921438e-06  3.88883139e-05 -3.72590995e-05 
 1.64500000e-08  1.41884743e-06  3.86253064e-05 -3.72064589e-05 
 1.65500000e-08  1.64994370e-06  3.88040311e-05 -3.71540874e-05 
 1.66500000e-08  1.45195592e-06  3.85539433e-05 -3.71019874e-05 
 1.67500000e-08  1.67778224e-06  3.87279400e-05 -3.70501577e-05 
 1.68500000e-08  1.48609254e-06  3.84846698e-05 -3.69985772e-05 
 1.69500000e-08  1.70815840e-06  3.86554068e-05 -3.69472484e-05 
 1.70000000e-08  1.51337021e-06  3.84350372e-05 -3.69216670e-05 
 1.70100000e-08  1.61681867e-06  3.85333823e-05 -3.69165637e-05 
 1.70300000e-08  1.61511040e-06  3.85214621e-05 -3.69063517e-05 
 1.70700000e-08  1.62851036e-06  3.85144671e-05 -3.68859567e-05 
 1.71500000e-08  1.63898671e-06  3.84842715e-05 -3.68452848e-05 
 1.72500000e-08  1.65917958e-06  3.84538226e-05 -3.67946430e-05 
 1.73500000e-08  1.67652597e-06  3.84207519e-05 -3.67442259e-05 
 1.74500000e-08  1.69564545e-06  3.83896676e-05 -3.66940221e-05 
 1.75500000e-08  1.71520298e-06  3.83592357e-05 -3.66440327e-05 
 1.76500000e-08  1.73377570e-06  3.83280248e-05 -3.65942491e-05 
 1.77500000e-08  1.75487169e-06  3.82995428e-05 -3.65446711e-05 
 1.78500000e-08  1.77319104e-06  3.82684833e-05 -3.64952922e-05 
 1.79500000e-08  1.79538015e-06  3.82414917e-05 -3.64461116e-05 
 1.80500000e-08  1.81361232e-06  3.82107362e-05 -3.63971239e-05 
 1.81500000e-08  1.83658503e-06  3.81849131e-05 -3.63483281e-05 
 1.82500000e-08  1.85482227e-06  3.81545420e-05 -3.62997198e-05 
 1.83500000e-08  1.87835403e-06  3.81296518e-05 -3.62512978e-05 
 1.84500000e-08  1.89664735e-06  3.80997058e-05 -3.62030585e-05 
 1.85500000e-08  1.92057169e-06  3.80755723e-05 -3.61550006e-05 
 1.86500000e-08  1.93894580e-06  3.80460669e-05 -3.61071211e-05 
 1.87500000e-08  1.96313795e-06  3.80225567e-05 -3.60594188e-05 
 1.88500000e-08  1.98160126e-06  3.79934922e-05 -3.60118909e-05 
 1.89500000e-08  2.00596662e-06  3.79705030e-05 -3.59645364e-05 
 1.90500000e-08  2.02451734e-06  3.79418703e-05 -3.59173529e-05 
 1.91500000e-08  2.04898363e-06  3.79193230e-05 -3.58703394e-05 
 1.92500000e-08  2.06761406e-06  3.78911078e-05 -3.58234938e-05 
 1.93500000e-08  2.09212523e-06  3.78689403e-05 -3.57768150e-05 
 1.94500000e-08  2.11082478e-06  3.78411262e-05 -3.57303014e-05 
 1.95500000e-08  2.13533706e-06  3.78192890e-05 -3.56839519e-05 
 1.96500000e-08  2.15409353e-06  3.77918585e-05 -3.56377650e-05 
 1.97500000e-08  2.17857255e-06  3.77703123e-05 -3.55917397e-05 
 1.98500000e-08  2.19737334e-06  3.77432480e-05 -3.55458747e-05 
 1.99500000e-08  2.22179190e-06  3.77219609e-05 -3.55001690e-05 
 2.00500000e-08  2.24062467e-06  3.76952460e-05 -3.54546213e-05 
 2.01500000e-08  2.26496110e-06  3.76741921e-05 -3.54092310e-05 
 2.02500000e-08  2.28381416e-06  3.76478109e-05 -3.53639967e-05 
 2.03500000e-08  2.30805106e-06  3.76269689e-05 -3.53189179e-05 
 2.04500000e-08  2.32691361e-06  3.76009068e-05 -3.52739932e-05 
 2.05500000e-08  2.35103700e-06  3.75802592e-05 -3.52292222e-05 
 2.06500000e-08  2.36989914e-06  3.75545028e-05 -3.51846037e-05 
 2.07500000e-08  2.39389772e-06  3.75340349e-05 -3.51401371e-05 
 2.08500000e-08  2.41275053e-06  3.75085720e-05 -3.50958215e-05 
 2.09500000e-08  2.43661517e-06  3.74882714e-05 -3.50516563e-05 
 2.10000000e-08  2.44481319e-06  3.74744429e-05 -3.50296297e-05 
 2.10100000e-08  2.45143026e-06  3.74766621e-05 -3.50252319e-05 
 2.10300000e-08  2.44648051e-06  3.74629135e-05 -3.50164330e-05 
 2.10700000e-08  2.46529855e-06  3.74641529e-05 -3.49988544e-05 
 2.11500000e-08  2.47463560e-06  3.74384110e-05 -3.49637754e-05 
 2.12500000e-08  2.50192548e-06  3.74219801e-05 -3.49200546e-05 
 2.13500000e-08  2.51817644e-06  3.73946614e-05 -3.48764850e-05 
 2.14500000e-08  2.54379949e-06  3.73768601e-05 -3.48330606e-05 
 2.15500000e-08  2.56062247e-06  3.73504056e-05 -3.47897831e-05 
 2.16500000e-08  2.59157861e-06  3.73382483e-05 -3.47466697e-05 
 2.17500000e-08  2.59896363e-06  3.73026524e-05 -3.47036888e-05 
 2.18500000e-08  2.60081947e-06  3.72615633e-05 -3.46607438e-05 
 2.19500000e-08  2.50136611e-06  3.71188472e-05 -3.46174811e-05 
 2.20000000e-08  2.07943286e-06  3.66744209e-05 -3.45949881e-05 
 2.20100000e-08  2.09219606e-06  3.66825548e-05 -3.45903588e-05 
 2.20300000e-08  2.30504676e-06  3.68862885e-05 -3.45812417e-05 
 2.20700000e-08  5.28316200e-06  3.98504018e-05 -3.45672398e-05 
 2.21500000e-08  1.78411907e-05  5.24215774e-05 -3.45803867e-05 
 2.22500000e-08  1.97620541e-05  5.44067300e-05 -3.46446759e-05 
 2.23500000e-08  1.25837097e-05  4.72751147e-05 -3.46914050e-05 
 2.24500000e-08  7.57504487e-06  4.22727143e-05 -3.46976695e-05 
 2.25500000e-08  4.84279122e-06  3.95240235e-05 -3.46812323e-05 
 2.26500000e-08  2.49765435e-06  3.71581599e-05 -3.46605055e-05 
 2.27500000e-08 -5.79774087e-07  3.40655501e-05 -3.46453242e-05 
 2.28500000e-08 -3.78926323e-06  3.08506494e-05 -3.46399127e-05 
 2.29500000e-08 -7.37277004e-06  2.72740275e-05 -3.46467976e-05 
 2.30500000e-08 -1.09104022e-05  2.37578477e-05 -3.46682500e-05 
 2.31500000e-08 -2.10358016e-05  1.36916591e-05 -3.47274607e-05 
 2.32500000e-08 -2.85942398e-05  6.24464039e-06 -3.48388802e-05 
 2.33500000e-08 -2.12652364e-06  3.27558729e-05 -3.48823966e-05 
 2.34500000e-08 -2.89351070e-06  3.19434054e-05 -3.48369161e-05 
 2.35500000e-08  1.03873555e-05  4.51347008e-05 -3.47473454e-05 
 2.36500000e-08  1.35061133e-06  3.59927817e-05 -3.46421704e-05 
 2.37500000e-08  1.10119646e-05  4.55459136e-05 -3.45339490e-05 
 2.38500000e-08  1.17013141e-06  3.55959918e-05 -3.44258603e-05 
 2.39500000e-08  1.03672108e-05  4.46868669e-05 -3.43196560e-05 
 2.40500000e-08  7.52473020e-07  3.49673499e-05 -3.42148769e-05 
 2.41500000e-08  9.78571004e-06  4.38978545e-05 -3.41121445e-05 
 2.42500000e-08  4.58475338e-07  3.44691754e-05 -3.40107001e-05 
 2.43500000e-08  9.33400317e-06  4.32450837e-05 -3.39110806e-05 
 2.44500000e-08  2.75779388e-07  3.40883127e-05 -3.38125333e-05 
 2.45500000e-08  8.98279761e-06  4.26983943e-05 -3.37155967e-05 
 2.46500000e-08  1.75019623e-07  3.37945659e-05 -3.36195463e-05 
 2.47500000e-08  8.70616947e-06  4.22310957e-05 -3.35249262e-05 
 2.48500000e-08  1.34285040e-07  3.35653244e-05 -3.34310394e-05 
 2.49500000e-08  8.48554394e-06  4.18239776e-05 -3.33384336e-05 
 2.50500000e-08  1.38007652e-07  3.33844437e-05 -3.32464360e-05 
 2.51500000e-08  8.30764844e-06  4.14632444e-05 -3.31555959e-05 
 2.52500000e-08  1.75010640e-07  3.32402726e-05 -3.30652619e-05 
 2.53500000e-08  8.16285771e-06  4.11388405e-05 -3.29759828e-05 
 2.54500000e-08  2.37147749e-07  3.31242742e-05 -3.28871265e-05 
 2.55500000e-08  8.04408196e-06  4.08433214e-05 -3.27992395e-05 
 2.56500000e-08  3.18394713e-07  3.30301019e-05 -3.27117072e-05 
 2.57500000e-08  7.94602141e-06  4.05710939e-05 -3.26250725e-05 
 2.58500000e-08  4.14236198e-07  3.29529730e-05 -3.25387368e-05 
 2.59500000e-08  7.86465940e-06  4.03178978e-05 -3.24532384e-05 
 2.60000000e-08  5.60677663e-07  3.29711603e-05 -3.24104826e-05 
 2.60100000e-08  4.05862956e-06  3.64606711e-05 -3.24020416e-05 
 2.60300000e-08  4.28239312e-06  3.66674390e-05 -3.23850459e-05 
 2.60700000e-08  4.07423217e-06  3.64253411e-05 -3.23511089e-05 
 2.61500000e-08  4.28868759e-06  3.65721605e-05 -3.22834729e-05 
 2.62500000e-08  4.10295891e-06  3.63023255e-05 -3.21993666e-05 
 2.63500000e-08  4.31684972e-06  3.64325827e-05 -3.21157330e-05 
 2.64500000e-08  4.14021760e-06  3.61727649e-05 -3.20325473e-05 
 2.65500000e-08  4.35096098e-06  3.63007553e-05 -3.19497944e-05 
