 time            v(Vout+)        v(Vout-)        v(Vout+)-v(Vout-)
 0.00000000e+00  1.34617391e-10  3.84352457e-05 -3.84351111e-05 
 1.00000000e-12  1.43698148e-10  3.84352548e-05 -3.84351111e-05 
 2.00000000e-12  1.41534589e-10  3.84352526e-05 -3.84351111e-05 
 4.00000000e-12  1.37521442e-10  3.84352486e-05 -3.84351111e-05 
 8.00000000e-12  1.33579136e-10  3.84352447e-05 -3.84351111e-05 
 1.60000000e-11  1.32564402e-10  3.84352437e-05 -3.84351111e-05 
 3.20000000e-11  1.34114328e-10  3.84352452e-05 -3.84351111e-05 
 6.40000000e-11  1.34895917e-10  3.84352460e-05 -3.84351111e-05 
 1.28000000e-10  1.34571533e-10  3.84352457e-05 -3.84351111e-05 
 2.28000000e-10  1.34727838e-10  3.84352458e-05 -3.84351111e-05 
 3.28000000e-10  1.34550058e-10  3.84352456e-05 -3.84351111e-05 
 4.28000000e-10  1.34690556e-10  3.84352458e-05 -3.84351111e-05 
 5.28000000e-10  1.34528413e-10  3.84352456e-05 -3.84351111e-05 
 6.28000000e-10  1.34652387e-10  3.84352458e-05 -3.84351111e-05 
 7.28000000e-10  1.34511387e-10  3.84352456e-05 -3.84351111e-05 
 8.28000000e-10  1.34629412e-10  3.84352457e-05 -3.84351111e-05 
 9.28000000e-10  1.34498573e-10  3.84352456e-05 -3.84351111e-05 
 1.00000000e-09  1.34603086e-10  3.84352457e-05 -3.84351111e-05 
 1.01000000e-09  4.33181047e-09  3.84394457e-05 -3.84351139e-05 
 1.03000000e-09 -7.75323746e-09  3.84273582e-05 -3.84351114e-05 
 1.07000000e-09  6.00554414e-09  3.84411143e-05 -3.84351088e-05 
 1.15000000e-09 -4.30938582e-09  3.84308031e-05 -3.84351125e-05 
 1.25000000e-09  3.81909228e-09  3.84389291e-05 -3.84351100e-05 
 1.35000000e-09 -2.83009557e-09  3.84322823e-05 -3.84351124e-05 
 1.45000000e-09  3.80655581e-09  3.84389213e-05 -3.84351147e-05 
 1.55000000e-09 -6.91847144e-09  3.84281851e-05 -3.84351036e-05 
 1.65000000e-09  1.61670932e-08  3.84513003e-05 -3.84351332e-05 
 1.75000000e-09 -2.08238565e-08  3.84142931e-05 -3.84351169e-05 
 1.85000000e-09  2.23591975e-09  3.84372907e-05 -3.84350547e-05 
 1.95000000e-09 -9.07122386e-08  3.83440496e-05 -3.84347618e-05 
 2.00000000e-09 -3.73555769e-07  3.80604396e-05 -3.84339953e-05 
 2.01000000e-09 -3.68437836e-07  3.80653143e-05 -3.84337522e-05 
 2.03000000e-09 -1.93002521e-07  3.82403791e-05 -3.84333816e-05 
 2.07000000e-09  2.16947508e-06  4.06054653e-05 -3.84359902e-05 
 2.15000000e-09  1.34465139e-05  5.19237263e-05 -3.84772123e-05 
 2.25000000e-09  1.16232207e-05  5.01829367e-05 -3.85597159e-05 
 2.35000000e-09 -1.10188660e-06  3.75008276e-05 -3.86027142e-05 
 2.45000000e-09 -4.18276621e-07  3.82275473e-05 -3.86458239e-05 
 2.55000000e-09 -1.56982942e-05  2.30161006e-05 -3.87143948e-05 
 2.65000000e-09 -2.03185628e-05  1.85138181e-05 -3.88323810e-05 
 2.75000000e-09  3.68813534e-06  4.25654959e-05 -3.88773606e-05 
 2.85000000e-09 -9.68772103e-07  3.78836465e-05 -3.88524186e-05 
 2.95000000e-09  1.92335648e-06  4.07543106e-05 -3.88309542e-05 
 3.05000000e-09 -8.84852657e-07  3.79225048e-05 -3.88073575e-05 
 3.15000000e-09  1.68995757e-06  4.04742724e-05 -3.87843148e-05 
 3.25000000e-09 -9.14628460e-07  3.78459834e-05 -3.87606119e-05 
 3.35000000e-09  1.53893472e-06  4.02767026e-05 -3.87377679e-05 
 3.45000000e-09 -9.15043127e-07  3.77994550e-05 -3.87144981e-05 
 3.55000000e-09  1.41760455e-06  4.01097636e-05 -3.86921590e-05 
 3.65000000e-09 -8.97002868e-07  3.77724389e-05 -3.86694418e-05 
 3.75000000e-09  1.31488965e-06  3.99625283e-05 -3.86476386e-05 
 3.85000000e-09 -8.67421291e-07  3.77580356e-05 -3.86254569e-05 
 3.95000000e-09  1.22557257e-06  3.98297226e-05 -3.86041500e-05 
 4.05000000e-09 -8.30053893e-07  3.77523998e-05 -3.85824537e-05 
 4.15000000e-09  1.14662307e-06  3.97082133e-05 -3.85615902e-05 
 4.25000000e-09 -7.87194527e-07  3.77531323e-05 -3.85403268e-05 
 4.35000000e-09  1.07605326e-06  3.95959102e-05 -3.85198569e-05 
 4.45000000e-09 -7.40389609e-07  3.77585899e-05 -3.84989795e-05 
 4.55000000e-09  1.01244141e-06  3.94913017e-05 -3.84788602e-05 
 4.65000000e-09 -6.90746443e-07  3.77675825e-05 -3.84583289e-05 
 4.75000000e-09  9.54712940e-07  3.93932370e-05 -3.84385241e-05 
 4.85000000e-09 -6.39094452e-07  3.77792108e-05 -3.84183053e-05 
 4.95000000e-09  9.02032419e-07  3.93008168e-05 -3.83987844e-05 
 5.05000000e-09 -5.86070125e-07  3.77927799e-05 -3.83788500e-05 
 5.15000000e-09  8.53735551e-07  3.92133232e-05 -3.83595877e-05 
 5.25000000e-09 -5.32168871e-07  3.78077450e-05 -3.83399139e-05 
 5.35000000e-09  8.09285358e-07  3.91301738e-05 -3.83208885e-05 
 5.45000000e-09 -4.77779817e-07  3.78236753e-05 -3.83014552e-05 
 5.55000000e-09  7.68242128e-07  3.90508906e-05 -3.82826485e-05 
 5.65000000e-09 -4.23210542e-07  3.78402280e-05 -3.82634385e-05 
 5.75000000e-09  7.30241763e-07  3.89750768e-05 -3.82448351e-05 
 5.85000000e-09 -3.68705122e-07  3.78571287e-05 -3.82258339e-05 
 5.95000000e-09  6.94979766e-07  3.89024001e-05 -3.82074203e-05 
 6.00000000e-09 -2.95550293e-07  3.79023370e-05 -3.81978873e-05 
 6.01000000e-09  1.22017235e-07  3.83181596e-05 -3.81961423e-05 
 6.03000000e-09  2.38237131e-07  3.84306797e-05 -3.81924426e-05 
 6.07000000e-09  1.32351519e-07  3.83173869e-05 -3.81850354e-05 
 6.15000000e-09  2.35691511e-07  3.84059590e-05 -3.81702675e-05 
 6.25000000e-09  1.46573272e-07  3.82984539e-05 -3.81518807e-05 
 6.35000000e-09  2.44292865e-07  3.83778803e-05 -3.81335874e-05 
 6.45000000e-09  1.59737296e-07  3.82751006e-05 -3.81153633e-05 
 6.55000000e-09  2.52190587e-07  3.83494112e-05 -3.80972206e-05 
 6.65000000e-09  1.77502364e-07  3.82566649e-05 -3.80791625e-05 
 6.75000000e-09  2.63700235e-07  3.83248996e-05 -3.80611994e-05 
 6.85000000e-09  1.92537662e-07  3.82358400e-05 -3.80433023e-05 
 6.95000000e-09  2.75861411e-07  3.83013533e-05 -3.80254919e-05 
 7.00000000e-09  2.03207933e-07  3.82198106e-05 -3.80166026e-05 
 7.01000000e-09  2.44367757e-07  3.82592020e-05 -3.80148343e-05 
 7.03000000e-09  2.36884324e-07  3.82481700e-05 -3.80112857e-05 
 7.07000000e-09  2.50030167e-07  3.82542287e-05 -3.80041986e-05 
 7.15000000e-09  2.48337046e-07  3.82384048e-05 -3.79900678e-05 
 7.25000000e-09  2.60834833e-07  3.82332969e-05 -3.79724620e-05 
 7.35000000e-09  2.63665044e-07  3.82185955e-05 -3.79549305e-05 
 7.45000000e-09  2.74225271e-07  3.82116896e-05 -3.79374643e-05 
 7.55000000e-09  2.78871579e-07  3.81989405e-05 -3.79200689e-05 
 7.65000000e-09  2.88227670e-07  3.81909658e-05 -3.79027381e-05 
 7.75000000e-09  2.94065312e-07  3.81795408e-05 -3.78854755e-05 
 7.85000000e-09  3.02650059e-07  3.81709266e-05 -3.78682765e-05 
 7.95000000e-09  3.09289287e-07  3.81604327e-05 -3.78511434e-05 
 8.05000000e-09  3.17374544e-07  3.81514474e-05 -3.78340729e-05 
 8.15000000e-09  3.24560363e-07  3.81416268e-05 -3.78170665e-05 
 8.25000000e-09  3.32320665e-07  3.81324421e-05 -3.78001215e-05 
 8.35000000e-09  3.39876931e-07  3.81231160e-05 -3.77832390e-05 
 8.45000000e-09  3.47429936e-07  3.81138469e-05 -3.77664170e-05 
 8.55000000e-09  3.55232457e-07  3.81048886e-05 -3.77496561e-05 
 8.65000000e-09  3.62656922e-07  3.80956116e-05 -3.77329547e-05 
 8.75000000e-09  3.70617369e-07  3.80869306e-05 -3.77163133e-05 
 8.85000000e-09  3.77965679e-07  3.80776960e-05 -3.76997303e-05 
 8.95000000e-09  3.86021245e-07  3.80692276e-05 -3.76832064e-05 
 9.05000000e-09  3.93327400e-07  3.80600674e-05 -3.76667400e-05 
 9.15000000e-09  4.01432670e-07  3.80517644e-05 -3.76503317e-05 
 9.25000000e-09  4.08719074e-07  3.80426994e-05 -3.76339803e-05 
 9.35000000e-09  4.16841042e-07  3.80345271e-05 -3.76176861e-05 
 9.45000000e-09  4.24121472e-07  3.80255694e-05 -3.76014479e-05 
 9.55000000e-09  4.32236309e-07  3.80175025e-05 -3.75852662e-05 
 9.65000000e-09  4.39518865e-07  3.80086588e-05 -3.75691399e-05 
 9.75000000e-09  4.47609172e-07  3.80006785e-05 -3.75530694e-05 
 9.85000000e-09  4.54898150e-07  3.79919518e-05 -3.75370536e-05 
 9.95000000e-09  4.62951156e-07  3.79840441e-05 -3.75210929e-05 
 1.00500000e-08  4.70248354e-07  3.79754348e-05 -3.75051864e-05 
 1.01500000e-08  4.78254644e-07  3.79675890e-05 -3.74893344e-05 
 1.02500000e-08  4.85560239e-07  3.79590962e-05 -3.74735360e-05 
 1.03500000e-08  4.93512912e-07  3.79513044e-05 -3.74577915e-05 
 1.04500000e-08  5.00826059e-07  3.79429261e-05 -3.74421001e-05 
 1.05500000e-08  5.08719913e-07  3.79351820e-05 -3.74264620e-05 
 1.06500000e-08  5.16039160e-07  3.79269158e-05 -3.74108766e-05 
 1.07500000e-08  5.23870411e-07  3.79192145e-05 -3.73953441e-05 
 1.08500000e-08  5.31193927e-07  3.79110576e-05 -3.73798637e-05 
 1.09500000e-08  5.38959770e-07  3.79033954e-05 -3.73644356e-05 
 1.10000000e-08  5.42531695e-07  3.78992726e-05 -3.73567409e-05 
 1.10100000e-08  5.47120377e-07  3.79023268e-05 -3.73552064e-05 
 1.10300000e-08  5.37950883e-07  3.78900820e-05 -3.73521311e-05 
 1.10700000e-08  5.53024989e-07  3.78990136e-05 -3.73459886e-05 
 1.11500000e-08  5.49966646e-07  3.78837030e-05 -3.73337363e-05 
 1.12500000e-08  5.64655281e-07  3.78831163e-05 -3.73184611e-05 
 1.13500000e-08  5.66220226e-07  3.78694616e-05 -3.73032413e-05 
 1.14500000e-08  5.79061989e-07  3.78671328e-05 -3.72880709e-05 
 1.15500000e-08  5.81127586e-07  3.78540789e-05 -3.72729513e-05 
 1.16500000e-08  6.01133909e-07  3.78590402e-05 -3.72579063e-05 
 1.17500000e-08  5.88031747e-07  3.78309171e-05 -3.72428854e-05 
 1.18500000e-08  5.67012348e-07  3.77947654e-05 -3.72277530e-05 
 1.19500000e-08  3.73232030e-07  3.75851441e-05 -3.72119121e-05 
 1.20000000e-08  1.61649454e-07  3.73649718e-05 -3.72033223e-05 
 1.20100000e-08  6.92309169e-07  3.78941953e-05 -3.72018862e-05 
 1.20300000e-08  2.51941395e-06  3.97196370e-05 -3.72002231e-05 
 1.20700000e-08  9.93454813e-06  4.71436713e-05 -3.72091232e-05 
 1.21500000e-08  2.11567692e-05  5.84329767e-05 -3.72762075e-05 
 1.22500000e-08  1.40514735e-05  5.14250382e-05 -3.73735647e-05 
 1.23500000e-08  5.38863769e-06  4.28073293e-05 -3.74186917e-05 
 1.24500000e-08  3.69381202e-06  4.11286789e-05 -3.74348669e-05 
 1.25500000e-08 -9.96369408e-07  3.64528502e-05 -3.74492196e-05 
 1.26500000e-08 -3.75802329e-06  3.37139921e-05 -3.74720154e-05 
 1.27500000e-08 -9.19712779e-06  2.83107354e-05 -3.75078632e-05 
 1.28500000e-08 -1.22419679e-05  2.53177613e-05 -3.75597292e-05 
 1.29500000e-08 -2.56848989e-05  1.19721328e-05 -3.76570317e-05 
 1.30500000e-08 -2.35276959e-05  1.42566220e-05 -3.77843178e-05 
 1.31500000e-08  1.49561588e-06  3.93117378e-05 -3.78161220e-05 
 1.32500000e-08 -3.21915843e-06  3.45575052e-05 -3.77766636e-05 
 1.33500000e-08  7.82865946e-06  4.55425190e-05 -3.77138596e-05 
 1.34500000e-08 -1.83387866e-06  3.58110312e-05 -3.76449099e-05 
 1.35500000e-08  7.54530501e-06  4.51214097e-05 -3.75761047e-05 
 1.36500000e-08 -2.06338809e-06  3.54441052e-05 -3.75074932e-05 
 1.37500000e-08  7.00431297e-06  4.44448439e-05 -3.74405309e-05 
 1.38500000e-08 -2.25942178e-06  3.51146777e-05 -3.73740995e-05 
 1.39500000e-08  6.55731365e-06  4.38666340e-05 -3.73093204e-05 
 1.40500000e-08 -2.37077470e-06  3.48742419e-05 -3.72450166e-05 
 1.41500000e-08  6.19362333e-06  4.33758726e-05 -3.71822492e-05 
 1.42500000e-08 -2.41774529e-06  3.47021139e-05 -3.71198591e-05 
 1.43500000e-08  5.89330138e-06  4.29521780e-05 -3.70588766e-05 
 1.44500000e-08 -2.41758586e-06  3.45805869e-05 -3.69981727e-05 
 1.45500000e-08  5.64131095e-06  4.25800661e-05 -3.69387551e-05 
 1.46500000e-08 -2.38287912e-06  3.44966492e-05 -3.68795283e-05 
 1.47500000e-08  5.42670108e-06  4.22481811e-05 -3.68214800e-05 
 1.48500000e-08 -2.32273350e-06  3.44408147e-05 -3.67635482e-05 
 1.49500000e-08  5.24146898e-06  4.19481704e-05 -3.67067014e-05 
 1.50500000e-08 -2.24378305e-06  3.44061270e-05 -3.66499100e-05 
 1.51500000e-08  5.07970617e-06  4.16738295e-05 -3.65941233e-05 
 1.52500000e-08 -2.15090753e-06  3.43874350e-05 -3.65383426e-05 
 1.53500000e-08  4.93699359e-06  4.14204911e-05 -3.64834976e-05 
 1.54500000e-08 -2.04773720e-06  3.43808819e-05 -3.64286191e-05 
 1.55500000e-08  4.80997985e-06  4.11845969e-05 -3.63746171e-05 
 1.56500000e-08 -1.93700390e-06  3.43835464e-05 -3.63205503e-05 
 1.57500000e-08  4.69608712e-06  4.09633960e-05 -3.62673088e-05 
 1.58500000e-08 -1.82078616e-06  3.43931919e-05 -3.62139781e-05 
 1.59500000e-08  4.59330501e-06  4.07547333e-05 -3.61614283e-05 
 1.60000000e-08 -1.65072065e-06  3.44842325e-05 -3.61349532e-05 
 1.60100000e-08  1.28647012e-06  3.74162814e-05 -3.61298113e-05 
 1.60300000e-08  1.54825831e-06  3.76676024e-05 -3.61193441e-05 
 1.60700000e-08  1.30484033e-06  3.74032704e-05 -3.60984301e-05 
 1.61500000e-08  1.54604658e-06  3.76028012e-05 -3.60567546e-05 
 1.62500000e-08  1.32609775e-06  3.73310214e-05 -3.60049237e-05 
 1.63500000e-08  1.56093888e-06  3.75143287e-05 -3.59533898e-05 
 1.64500000e-08  1.35121920e-06  3.72533434e-05 -3.59021243e-05 
 1.65500000e-08  1.57975701e-06  3.74308903e-05 -3.58511333e-05 
 1.66500000e-08  1.38070294e-06  3.71810990e-05 -3.58003961e-05 
 1.67500000e-08  1.60409033e-06  3.73540159e-05 -3.57499256e-05 
 1.68500000e-08  1.41302626e-06  3.71127196e-05 -3.56996934e-05 
 1.69500000e-08  1.63128322e-06  3.72809950e-05 -3.56497118e-05 
 1.70000000e-08  1.43954298e-06  3.70643417e-05 -3.56247988e-05 
 1.70100000e-08  1.53997436e-06  3.71598047e-05 -3.56198304e-05 
 1.70300000e-08  1.53943384e-06  3.71493201e-05 -3.56098863e-05 
 1.70700000e-08  1.55116841e-06  3.71411947e-05 -3.55900263e-05 
 1.71500000e-08  1.56175019e-06  3.71121719e-05 -3.55504217e-05 
 1.72500000e-08  1.57985544e-06  3.70809646e-05 -3.55011092e-05 
 1.73500000e-08  1.59695223e-06  3.70489683e-05 -3.54520160e-05 
 1.74500000e-08  1.61422473e-06  3.70173556e-05 -3.54031309e-05 
 1.75500000e-08  1.63341177e-06  3.69878666e-05 -3.53544549e-05 
 1.76500000e-08  1.65034935e-06  3.69563287e-05 -3.53059794e-05 
 1.77500000e-08  1.67098750e-06  3.69286919e-05 -3.52577044e-05 
 1.78500000e-08  1.68784855e-06  3.68974717e-05 -3.52096232e-05 
 1.79500000e-08  1.70951939e-06  3.68712546e-05 -3.51617352e-05 
 1.80500000e-08  1.72644283e-06  3.68404778e-05 -3.51140350e-05 
 1.81500000e-08  1.74885521e-06  3.68153769e-05 -3.50665217e-05 
 1.82500000e-08  1.76591320e-06  3.67851041e-05 -3.50191909e-05 
 1.83500000e-08  1.78885429e-06  3.67608958e-05 -3.49720415e-05 
 1.84500000e-08  1.80608227e-06  3.67311521e-05 -3.49250698e-05 
 1.85500000e-08  1.82939374e-06  3.67076686e-05 -3.48782748e-05 
 1.86500000e-08  1.84680370e-06  3.66784570e-05 -3.48316533e-05 
 1.87500000e-08  1.87036562e-06  3.66555698e-05 -3.47852042e-05 
 1.88500000e-08  1.88795653e-06  3.66268814e-05 -3.47389249e-05 
 1.89500000e-08  1.91167679e-06  3.66044911e-05 -3.46928143e-05 
 1.90500000e-08  1.92943892e-06  3.65763089e-05 -3.46468700e-05 
 1.91500000e-08  1.95324670e-06  3.65543379e-05 -3.46010912e-05 
 1.92500000e-08  1.97116537e-06  3.65266410e-05 -3.45554756e-05 
 1.93500000e-08  1.99500551e-06  3.65050281e-05 -3.45100226e-05 
 1.94500000e-08  2.01306376e-06  3.64777938e-05 -3.44647301e-05 
 1.95500000e-08  2.03689298e-06  3.64564904e-05 -3.44195974e-05 
 1.96500000e-08  2.05507293e-06  3.64296957e-05 -3.43746228e-05 
 1.97500000e-08  2.07885698e-06  3.64086626e-05 -3.43298056e-05 
 1.98500000e-08  2.09714100e-06  3.63822852e-05 -3.42851442e-05 
 1.99500000e-08  2.12085253e-06  3.63614906e-05 -3.42406381e-05 
 2.00500000e-08  2.13922371e-06  3.63355094e-05 -3.41962856e-05 
 2.01500000e-08  2.16284083e-06  3.63149273e-05 -3.41520864e-05 
 2.02500000e-08  2.18128329e-06  3.62893223e-05 -3.41080390e-05 
 2.03500000e-08  2.20478833e-06  3.62689313e-05 -3.40641430e-05 
 2.04500000e-08  2.22328744e-06  3.62436845e-05 -3.40203970e-05 
 2.05500000e-08  2.24666613e-06  3.62234668e-05 -3.39768007e-05 
 2.06500000e-08  2.26520849e-06  3.61985613e-05 -3.39333528e-05 
 2.07500000e-08  2.28844928e-06  3.61785022e-05 -3.38900529e-05 
 2.08500000e-08  2.30702272e-06  3.61539226e-05 -3.38468999e-05 
 2.09500000e-08  2.33011625e-06  3.61340097e-05 -3.38038935e-05 
 2.10000000e-08  2.33833262e-06  3.61207774e-05 -3.37824448e-05 
 2.10100000e-08  2.34478263e-06  3.61229451e-05 -3.37781624e-05 
 2.10300000e-08  2.33964034e-06  3.61092346e-05 -3.37695943e-05 
 2.10700000e-08  2.35838933e-06  3.61108662e-05 -3.37524769e-05 
 2.11500000e-08  2.36716411e-06  3.60854824e-05 -3.37183183e-05 
 2.12500000e-08  2.39415830e-06  3.60699030e-05 -3.36757447e-05 
 2.13500000e-08  2.40967244e-06  3.60429908e-05 -3.36333184e-05 
 2.14500000e-08  2.43507875e-06  3.60261123e-05 -3.35910335e-05 
 2.15500000e-08  2.45109876e-06  3.59999904e-05 -3.35488917e-05 
 2.16500000e-08  2.47971210e-06  3.59866151e-05 -3.35069030e-05 
 2.17500000e-08  2.49713620e-06  3.59622079e-05 -3.34650717e-05 
 2.18500000e-08  2.47026032e-06  3.58934743e-05 -3.34232139e-05 
 2.19500000e-08  2.30195485e-06  3.56826699e-05 -3.33807151e-05 
 2.20000000e-08  2.01611796e-06  3.53748340e-05 -3.33587161e-05 
 2.20100000e-08  2.29696953e-06  3.56513778e-05 -3.33544082e-05 
 2.20300000e-08  3.47898265e-06  3.68255586e-05 -3.33465759e-05 
 2.20700000e-08  9.24055440e-06  4.25806622e-05 -3.33401078e-05 
 2.21500000e-08  2.30682732e-05  5.64473086e-05 -3.33790354e-05 
 2.22500000e-08  1.93691805e-05  5.28303107e-05 -3.34611303e-05 
 2.23500000e-08  9.83129625e-06  4.33304864e-05 -3.34991902e-05 
 2.24500000e-08  6.60791657e-06  4.01043311e-05 -3.34964145e-05 
 2.25500000e-08  3.19448320e-06  3.66777624e-05 -3.34832792e-05 
 2.26500000e-08  1.40139275e-07  3.36141245e-05 -3.34739853e-05 
 2.27500000e-08 -4.06057997e-06  2.94139914e-05 -3.34745714e-05 
 2.28500000e-08 -7.62553591e-06  2.58623040e-05 -3.34878399e-05 
 2.29500000e-08 -1.19820896e-05  2.15345775e-05 -3.35166671e-05 
 2.30500000e-08 -2.34276548e-05  1.01615162e-05 -3.35891710e-05 
 2.31500000e-08 -2.63338602e-05  7.36847088e-06 -3.37023311e-05 
 2.32500000e-08  4.19154013e-07  3.41502109e-05 -3.37310568e-05 
 2.33500000e-08 -2.69983958e-06  3.09778491e-05 -3.36776887e-05 
 2.34500000e-08  1.03048016e-05  4.38938259e-05 -3.35890243e-05 
 2.35500000e-08  4.02055071e-07  3.38907028e-05 -3.34886477e-05 
 2.36500000e-08  1.05590286e-05  4.39455346e-05 -3.33865060e-05 
 2.37500000e-08  2.88527838e-07  3.35728766e-05 -3.32843487e-05 
 2.38500000e-08  9.97416714e-06  4.31580797e-05 -3.31839125e-05 
 2.39500000e-08  4.07456057e-08  3.31251395e-05 -3.30843939e-05 
 2.40500000e-08  9.45401891e-06  4.24407576e-05 -3.29867387e-05 
 2.41500000e-08 -1.13475088e-07  3.27764716e-05 -3.28899467e-05 
 2.42500000e-08  9.03508274e-06  4.18299589e-05 -3.27948762e-05 
 2.43500000e-08 -1.85823334e-07  3.25147121e-05 -3.27005354e-05 
 2.44500000e-08  8.69570449e-06  4.13034630e-05 -3.26077585e-05 
 2.45500000e-08 -1.97385795e-07  3.23181972e-05 -3.25155830e-05 
 2.46500000e-08  8.41696021e-06  4.08417879e-05 -3.24248277e-05 
 2.47500000e-08 -1.64176712e-07  3.21703851e-05 -3.23345618e-05 
 2.48500000e-08  8.18493288e-06  4.04305235e-05 -3.22455906e-05 
 2.49500000e-08 -9.78295783e-08  3.20591849e-05 -3.21570145e-05 
 2.50500000e-08  7.98944758e-06  4.00590727e-05 -3.20696251e-05 
 2.51500000e-08 -6.83235287e-09  3.19757204e-05 -3.19825527e-05 
 2.52500000e-08  7.82299014e-06  3.97195652e-05 -3.18965750e-05 
 2.53500000e-08  1.02559053e-07  3.19134093e-05 -3.18108502e-05 
 2.54500000e-08  7.67994092e-06  3.94060824e-05 -3.17261415e-05 
 2.55500000e-08  2.25682386e-07  3.18673158e-05 -3.16416334e-05 
 2.56500000e-08  7.55604110e-06  3.91141154e-05 -3.15580743e-05 
 2.57500000e-08  3.59024302e-07  3.18336977e-05 -3.14746734e-05 
 2.58500000e-08  7.44802001e-06  3.88401837e-05 -3.13921637e-05 
 2.59500000e-08  4.99908968e-07  3.18096870e-05 -3.13097781e-05 
 2.60000000e-08  7.28799866e-06  3.85570366e-05 -3.12690380e-05 
 2.60100000e-08  4.09279850e-06  3.53535793e-05 -3.12607808e-05 
 2.60300000e-08  3.83655143e-06  3.50810022e-05 -3.12444508e-05 
 2.60700000e-08  4.08802497e-06  3.52998878e-05 -3.12118628e-05 
 2.61500000e-08  3.85746941e-06  3.50043467e-05 -3.11468773e-05 
 2.62500000e-08  4.11545442e-06  3.51815128e-05 -3.10660583e-05 
 2.63500000e-08  3.89590232e-06  3.48815550e-05 -3.09856527e-05 
 2.64500000e-08  4.15117192e-06  3.50568408e-05 -3.09056689e-05 
 2.65500000e-08  3.93979737e-06  3.47658677e-05 -3.08260703e-05 
