 time            v(Vout+)        v(Vout-)        v(vout+)-v(vout-)
 0.00000000e+00  1.77324560e-10  4.33121933e-05 -4.33120160e-05 
 1.00000000e-12  1.84716994e-10  4.33122007e-05 -4.33120160e-05 
 2.00000000e-12  1.83385924e-10  4.33121994e-05 -4.33120160e-05 
 4.00000000e-12  1.80099038e-10  4.33121961e-05 -4.33120160e-05 
 8.00000000e-12  1.76429552e-10  4.33121925e-05 -4.33120160e-05 
 1.60000000e-11  1.75601151e-10  4.33121916e-05 -4.33120160e-05 
 3.20000000e-11  1.76798193e-10  4.33121928e-05 -4.33120160e-05 
 6.40000000e-11  1.77597647e-10  4.33121936e-05 -4.33120160e-05 
 1.28000000e-10  1.77219642e-10  4.33121932e-05 -4.33120160e-05 
 2.28000000e-10  1.77457051e-10  4.33121935e-05 -4.33120160e-05 
 3.28000000e-10  1.77206697e-10  4.33121932e-05 -4.33120160e-05 
 4.28000000e-10  1.77429501e-10  4.33121935e-05 -4.33120160e-05 
 5.28000000e-10  1.77210471e-10  4.33121932e-05 -4.33120160e-05 
 6.28000000e-10  1.77426120e-10  4.33121934e-05 -4.33120160e-05 
 7.28000000e-10  1.77212904e-10  4.33121932e-05 -4.33120160e-05 
 8.28000000e-10  1.77416036e-10  4.33121934e-05 -4.33120160e-05 
 9.28000000e-10  1.77221201e-10  4.33121932e-05 -4.33120160e-05 
 1.00000000e-09  1.77412091e-10  4.33121934e-05 -4.33120160e-05 
 1.01000000e-09  4.39503268e-09  4.33164139e-05 -4.33120188e-05 
 1.03000000e-09 -7.69520689e-09  4.33043212e-05 -4.33120164e-05 
 1.07000000e-09  5.95118060e-09  4.33179648e-05 -4.33120136e-05 
 1.15000000e-09 -4.12851743e-09  4.33078890e-05 -4.33120175e-05 
 1.25000000e-09  3.70466993e-09  4.33157196e-05 -4.33120149e-05 
 1.35000000e-09 -2.59429785e-09  4.33094231e-05 -4.33120174e-05 
 1.45000000e-09  3.63105010e-09  4.33156507e-05 -4.33120197e-05 
 1.55000000e-09 -6.51171891e-09  4.33054972e-05 -4.33120090e-05 
 1.65000000e-09  1.59376783e-08  4.33279766e-05 -4.33120390e-05 
 1.75000000e-09 -2.00947083e-08  4.32919293e-05 -4.33120240e-05 
 1.85000000e-09 -1.26173985e-08  4.32992975e-05 -4.33119149e-05 
 1.95000000e-09 -2.02232506e-07  4.31089720e-05 -4.33112045e-05 
 2.00000000e-09 -3.43292456e-07  4.29670113e-05 -4.33103038e-05 
 2.01000000e-09  1.74531478e-07  4.34849514e-05 -4.33104199e-05 
 2.03000000e-09  2.11175824e-06  4.54236903e-05 -4.33119321e-05 
 2.07000000e-09  1.00687142e-05  5.33967325e-05 -4.33280183e-05 
 2.15000000e-09  1.74243964e-05  6.08249581e-05 -4.34005618e-05 
 2.25000000e-09  1.57468124e-06  4.50381645e-05 -4.34634833e-05 
 2.35000000e-09  2.42844774e-06  4.59260480e-05 -4.34976003e-05 
 2.45000000e-09 -1.05631197e-05  3.29844520e-05 -4.35475717e-05 
 2.55000000e-09 -1.49426698e-05  2.86933775e-05 -4.36360473e-05 
 2.65000000e-09 -2.09050866e-05  2.28418995e-05 -4.37469862e-05 
 2.75000000e-09  1.76297468e-05  6.13720832e-05 -4.37423364e-05 
 2.85000000e-09 -1.53674724e-05  2.83480521e-05 -4.37155245e-05 
 2.95000000e-09  1.64348763e-05  6.01249032e-05 -4.36900269e-05 
 3.05000000e-09 -1.51199374e-05  2.85431330e-05 -4.36630704e-05 
 3.15000000e-09  1.59238039e-05  5.95606248e-05 -4.36368209e-05 
 3.25000000e-09 -1.48882677e-05  2.87217629e-05 -4.36100306e-05 
 3.35000000e-09  1.54819947e-05  5.90662128e-05 -4.35842181e-05 
 3.45000000e-09 -1.46270932e-05  2.89309394e-05 -4.35580326e-05 
 3.55000000e-09  1.50779372e-05  5.86108064e-05 -4.35328693e-05 
 3.65000000e-09 -1.43485731e-05  2.91587806e-05 -4.35073537e-05 
 3.75000000e-09  1.47010190e-05  5.81838505e-05 -4.34828315e-05 
 3.85000000e-09 -1.40601596e-05  2.93977803e-05 -4.34579399e-05 
 3.95000000e-09  1.43452142e-05  5.77792099e-05 -4.34339957e-05 
 4.05000000e-09 -1.37663132e-05  2.96433454e-05 -4.34096587e-05 
 4.15000000e-09  1.40066734e-05  5.73928966e-05 -4.33862232e-05 
 4.25000000e-09 -1.34699039e-05  2.98924701e-05 -4.33623741e-05 
 4.35000000e-09  1.36827457e-05  5.70221309e-05 -4.33393852e-05 
 4.45000000e-09 -1.31728905e-05  3.01430761e-05 -4.33159666e-05 
 4.55000000e-09  1.33715014e-05  5.66648733e-05 -4.32933720e-05 
 4.65000000e-09 -1.28766655e-05  3.03936703e-05 -4.32703358e-05 
 4.75000000e-09  1.30714786e-05  5.63195706e-05 -4.32480920e-05 
 4.85000000e-09 -1.25822453e-05  3.06431533e-05 -4.32253986e-05 
 4.95000000e-09  1.27815381e-05  5.59850078e-05 -4.32034698e-05 
 5.05000000e-09 -1.22903831e-05  3.08907033e-05 -4.31810864e-05 
 5.15000000e-09  1.25007719e-05  5.56602145e-05 -4.31594426e-05 
 5.25000000e-09 -1.20016413e-05  3.11357006e-05 -4.31373418e-05 
 5.35000000e-09  1.22284440e-05  5.53444025e-05 -4.31159585e-05 
 5.45000000e-09 -1.17164403e-05  3.13776772e-05 -4.30941175e-05 
 5.55000000e-09  1.19639479e-05  5.50369218e-05 -4.30729738e-05 
 5.65000000e-09 -1.14350939e-05  3.16162796e-05 -4.30513735e-05 
 5.75000000e-09  1.17067797e-05  5.47372318e-05 -4.30304520e-05 
 5.85000000e-09 -1.11578377e-05  3.18512384e-05 -4.30090762e-05 
 5.95000000e-09  1.14565196e-05  5.44448818e-05 -4.29883622e-05 
 6.00000000e-09 -1.07602343e-05  3.22173966e-05 -4.29776309e-05 
 6.01000000e-09 -9.48044576e-08  4.28808670e-05 -4.29756714e-05 
 6.03000000e-09  5.27140534e-07  4.34986458e-05 -4.29715052e-05 
 6.07000000e-09 -6.59175816e-08  4.28972521e-05 -4.29631697e-05 
 6.15000000e-09  5.17801170e-07  4.34643467e-05 -4.29465455e-05 
 6.25000000e-09 -4.39708699e-08  4.28818767e-05 -4.29258475e-05 
 6.35000000e-09  5.24875430e-07  4.34301239e-05 -4.29052485e-05 
 6.45000000e-09 -2.23343563e-08  4.28623984e-05 -4.28847328e-05 
 6.55000000e-09  5.32901578e-07  4.33972127e-05 -4.28643111e-05 
 6.65000000e-09 -6.55900153e-10  4.28433120e-05 -4.28439679e-05 
 6.75000000e-09  5.43273285e-07  4.33669955e-05 -4.28237222e-05 
 6.85000000e-09  2.16661632e-08  4.28252192e-05 -4.28035530e-05 
 6.95000000e-09  5.54172785e-07  4.33376495e-05 -4.27834767e-05 
 7.00000000e-09  4.09104800e-08  4.28143692e-05 -4.27734588e-05 
 7.01000000e-09  2.95609777e-07  4.30670741e-05 -4.27714643e-05 
 7.03000000e-09  2.98480595e-07  4.30659450e-05 -4.27674644e-05 
 7.07000000e-09  3.02332191e-07  4.30618078e-05 -4.27594756e-05 
 7.15000000e-09  3.11576849e-07  4.30551215e-05 -4.27435447e-05 
 7.25000000e-09  3.15706778e-07  4.30394016e-05 -4.27236949e-05 
 7.35000000e-09  3.29625891e-07  4.30335518e-05 -4.27039259e-05 
 7.45000000e-09  3.31882690e-07  4.30161114e-05 -4.26842287e-05 
 7.55000000e-09  3.47475099e-07  4.30120839e-05 -4.26646088e-05 
 7.65000000e-09  3.48624368e-07  4.29936843e-05 -4.26450599e-05 
 7.75000000e-09  3.65247685e-07  4.29908332e-05 -4.26255855e-05 
 7.85000000e-09  3.65737490e-07  4.29719186e-05 -4.26061811e-05 
 7.95000000e-09  3.82992970e-07  4.29698420e-05 -4.25868490e-05 
 8.05000000e-09  3.83103026e-07  4.29506889e-05 -4.25675858e-05 
 8.15000000e-09  4.00731208e-07  4.29491243e-05 -4.25483931e-05 
 8.25000000e-09  4.00640949e-07  4.29299091e-05 -4.25292682e-05 
 8.35000000e-09  4.18464177e-07  4.29286763e-05 -4.25102121e-05 
 8.45000000e-09  4.18293340e-07  4.29095163e-05 -4.24912229e-05 
 8.55000000e-09  4.36187829e-07  4.29084891e-05 -4.24723012e-05 
 8.65000000e-09  4.36016288e-07  4.28894617e-05 -4.24534454e-05 
 8.75000000e-09  4.53895810e-07  4.28885517e-05 -4.24346559e-05 
 8.85000000e-09  4.53775564e-07  4.28697069e-05 -4.24159313e-05 
 8.95000000e-09  4.71579463e-07  4.28688515e-05 -4.23972720e-05 
 9.05000000e-09  4.71545041e-07  4.28502219e-05 -4.23786769e-05 
 9.15000000e-09  4.89230471e-07  4.28493765e-05 -4.23601461e-05 
 9.25000000e-09  4.89303418e-07  4.28309820e-05 -4.23416786e-05 
 9.35000000e-09  5.06840706e-07  4.28301153e-05 -4.23232746e-05 
 9.45000000e-09  5.07033868e-07  4.28119671e-05 -4.23049333e-05 
 9.55000000e-09  5.24402480e-07  4.28110571e-05 -4.22866546e-05 
 9.65000000e-09  5.24722865e-07  4.27931608e-05 -4.22684380e-05 
 9.75000000e-09  5.41908740e-07  4.27921920e-05 -4.22502833e-05 
 9.85000000e-09  5.42359497e-07  4.27745494e-05 -4.22321899e-05 
 9.95000000e-09  5.59353184e-07  4.27735111e-05 -4.22141579e-05 
 1.00500000e-08  5.59934834e-07  4.27561215e-05 -4.21961866e-05 
 1.01500000e-08  5.76730206e-07  4.27550063e-05 -4.21782761e-05 
 1.02500000e-08  5.77441633e-07  4.27378673e-05 -4.21604257e-05 
 1.03500000e-08  5.94034958e-07  4.27366704e-05 -4.21426354e-05 
 1.04500000e-08  5.94873922e-07  4.27197787e-05 -4.21249048e-05 
 1.05500000e-08  6.11263179e-07  4.27184970e-05 -4.21072338e-05 
 1.06500000e-08  6.12226792e-07  4.27018487e-05 -4.20896219e-05 
 1.07500000e-08  6.28411202e-07  4.27004803e-05 -4.20720691e-05 
 1.08500000e-08  6.29496175e-07  4.26840711e-05 -4.20545750e-05 
 1.09500000e-08  6.45475906e-07  4.26826153e-05 -4.20371394e-05 
 1.10000000e-08  6.42451086e-07  4.26708945e-05 -4.20284434e-05 
 1.10100000e-08  6.50589688e-07  4.26772985e-05 -4.20267088e-05 
 1.10300000e-08  6.41809583e-07  4.26650432e-05 -4.20232336e-05 
 1.10700000e-08  6.56988090e-07  4.26732799e-05 -4.20162918e-05 
 1.11500000e-08  6.55134725e-07  4.26575790e-05 -4.20024442e-05 
 1.12500000e-08  6.70367171e-07  4.26555476e-05 -4.19851805e-05 
 1.13500000e-08  6.73396841e-07  4.26413754e-05 -4.19679785e-05 
 1.14500000e-08  6.86638009e-07  4.26374698e-05 -4.19508318e-05 
 1.15500000e-08  6.90615713e-07  4.26243591e-05 -4.19337434e-05 
 1.16500000e-08  7.09642731e-07  4.26263750e-05 -4.19167323e-05 
 1.17500000e-08  7.00181840e-07  4.25999358e-05 -4.18997539e-05 
 1.18500000e-08  6.97977011e-07  4.25807152e-05 -4.18827382e-05 
 1.19500000e-08  6.33971577e-07  4.24994763e-05 -4.18655047e-05 
 1.20000000e-08  2.36517554e-07  4.20926425e-05 -4.18561249e-05 
 1.20100000e-08  2.21351733e-07  4.20754595e-05 -4.18541078e-05 
 1.20300000e-08  2.15144515e-07  4.20652141e-05 -4.18500696e-05 
 1.20700000e-08  1.94563170e-06  4.37899104e-05 -4.18442787e-05 
 1.21500000e-08  1.31378340e-05  5.50047273e-05 -4.18668933e-05 
 1.22500000e-08  1.70623382e-05  5.90074326e-05 -4.19450944e-05 
 1.23500000e-08  9.96731829e-06  5.19799980e-05 -4.20126797e-05 
 1.24500000e-08  4.87996181e-06  4.69198802e-05 -4.20399184e-05 
 1.25500000e-08  2.45584351e-06  4.45019287e-05 -4.20460852e-05 
 1.26500000e-08 -2.23206700e-07  4.18269395e-05 -4.20501462e-05 
 1.27500000e-08 -3.41316609e-06  3.86484753e-05 -4.20616414e-05 
 1.28500000e-08 -7.07439079e-06  3.50104077e-05 -4.20847985e-05 
 1.29500000e-08 -1.07237336e-05  3.13983728e-05 -4.21221064e-05 
 1.30500000e-08 -1.71763333e-05  2.50079852e-05 -4.21843184e-05 
 1.31500000e-08 -3.20025500e-05  1.03074408e-05 -4.23099908e-05 
 1.32500000e-08 -5.67582789e-06  3.67157849e-05 -4.23916128e-05 
 1.33500000e-08 -3.91841887e-06  3.84573348e-05 -4.23757536e-05 
 1.34500000e-08  7.55320976e-06  4.98662150e-05 -4.23130052e-05 
 1.35500000e-08 -2.04088441e-07  4.20320532e-05 -4.22361417e-05 
 1.36500000e-08  7.77046004e-06  4.99278703e-05 -4.21574103e-05 
 1.37500000e-08 -5.79399405e-07  4.14999183e-05 -4.20793177e-05 
 1.38500000e-08  7.10235115e-06  4.91054226e-05 -4.20030715e-05 
 1.39500000e-08 -1.01008637e-06  4.09180901e-05 -4.19281765e-05 
 1.40500000e-08  6.55920697e-06  4.84142987e-05 -4.18550917e-05 
 1.41500000e-08 -1.30199663e-06  4.04811721e-05 -4.17831687e-05 
 1.42500000e-08  6.14433169e-06  4.78571627e-05 -4.17128310e-05 
 1.43500000e-08 -1.48783003e-06  4.01556169e-05 -4.16434469e-05 
 1.44500000e-08  5.82301365e-06  4.73984591e-05 -4.15754455e-05 
 1.45500000e-08 -1.59773516e-06  3.99104853e-05 -4.15082204e-05 
 1.46500000e-08  5.56989729e-06  4.70121052e-05 -4.14422079e-05 
 1.47500000e-08 -1.65274271e-06  3.97240833e-05 -4.13768260e-05 
 1.48500000e-08  5.36735631e-06  4.66798723e-05 -4.13125160e-05 
 1.49500000e-08 -1.66752615e-06  3.95811916e-05 -4.12487177e-05 
 1.50500000e-08  5.20297744e-06  4.63888529e-05 -4.11858755e-05 
 1.51500000e-08 -1.65248383e-06  3.94709648e-05 -4.11234486e-05 
 1.52500000e-08  5.06787128e-06  4.61297536e-05 -4.10618824e-05 
 1.53500000e-08 -1.61510444e-06  3.93855488e-05 -4.10006532e-05 
 1.54500000e-08  4.95556630e-06  4.58957723e-05 -4.09402060e-05 
 1.55500000e-08 -1.56086494e-06  3.93191675e-05 -4.08800325e-05 
 1.56500000e-08  4.86127669e-06  4.56818521e-05 -4.08205754e-05 
 1.57500000e-08 -1.49382911e-06  3.92675114e-05 -4.07613405e-05 
 1.58500000e-08  4.78141070e-06  4.54841784e-05 -4.07027677e-05 
 1.59500000e-08 -1.41705262e-06  3.92273225e-05 -4.06443751e-05 
 1.60000000e-08  4.67420560e-06  4.52897017e-05 -4.06154961e-05 
 1.60100000e-08  1.75015413e-06  4.23598071e-05 -4.06096529e-05 
 1.60300000e-08  1.59182741e-06  4.21899177e-05 -4.05980903e-05 
 1.60700000e-08  1.74781039e-06  4.23228288e-05 -4.05750184e-05 
 1.61500000e-08  1.59709815e-06  4.21261270e-05 -4.05290288e-05 
 1.62500000e-08  1.76129903e-06  4.22331707e-05 -4.04718717e-05 
 1.63500000e-08  1.61524012e-06  4.20302856e-05 -4.04150455e-05 
 1.64500000e-08  1.78020178e-06  4.21387493e-05 -4.03585475e-05 
 1.65500000e-08  1.63689521e-06  4.19392392e-05 -4.03023440e-05 
 1.66500000e-08  1.80746302e-06  4.20539216e-05 -4.02464586e-05 
 1.67500000e-08  1.66708673e-06  4.18579520e-05 -4.01908653e-05 
 1.68500000e-08  1.83647715e-06  4.19720382e-05 -4.01355610e-05 
 1.69500000e-08  1.70069618e-06  4.17812220e-05 -4.00805258e-05 
 1.70000000e-08  1.85817906e-06  4.19112886e-05 -4.00531095e-05 
 1.70100000e-08  1.79184227e-06  4.18394788e-05 -4.00476366e-05 
 1.70300000e-08  1.78116645e-06  4.18178570e-05 -4.00366906e-05 
 1.70700000e-08  1.80308065e-06  4.18179114e-05 -4.00148307e-05 
 1.71500000e-08  1.80545656e-06  4.17766968e-05 -3.99712402e-05 
 1.72500000e-08  1.83410490e-06  4.17510758e-05 -3.99169709e-05 
 1.73500000e-08  1.84381134e-06  4.17067592e-05 -3.98629479e-05 
 1.74500000e-08  1.87148880e-06  4.16806477e-05 -3.98091589e-05 
 1.75500000e-08  1.88376248e-06  4.16393660e-05 -3.97556035e-05 
 1.76500000e-08  1.91096416e-06  4.16132369e-05 -3.97022727e-05 
 1.77500000e-08  1.92508736e-06  4.15742524e-05 -3.96491651e-05 
 1.78500000e-08  1.95205821e-06  4.15483318e-05 -3.95962736e-05 
 1.79500000e-08  1.96755760e-06  4.15111540e-05 -3.95435964e-05 
 1.80500000e-08  1.99442612e-06  4.14855541e-05 -3.94911279e-05 
 1.81500000e-08  2.01096506e-06  4.14498313e-05 -3.94388663e-05 
 1.82500000e-08  2.03779613e-06  4.14246030e-05 -3.93868069e-05 
 1.83500000e-08  2.05512913e-06  4.13900769e-05 -3.93349477e-05 
 1.84500000e-08  2.08195178e-06  4.13652369e-05 -3.92832851e-05 
 1.85500000e-08  2.09989470e-06  4.13317119e-05 -3.92318172e-05 
 1.86500000e-08  2.12671667e-06  4.13072574e-05 -3.91805407e-05 
 1.87500000e-08  2.14512910e-06  4.12745831e-05 -3.91294540e-05 
 1.88500000e-08  2.17194724e-06  4.12505016e-05 -3.90785544e-05 
 1.89500000e-08  2.19072028e-06  4.12185604e-05 -3.90278401e-05 
 1.90500000e-08  2.21752454e-06  4.11948335e-05 -3.89773090e-05 
 1.91500000e-08  2.23657378e-06  4.11635332e-05 -3.89269595e-05 
 1.92500000e-08  2.26335027e-06  4.11401399e-05 -3.88767896e-05 
 1.93500000e-08  2.28260945e-06  4.11094074e-05 -3.88267979e-05 
 1.94500000e-08  2.30934290e-06  4.10863257e-05 -3.87769828e-05 
 1.95500000e-08  2.32875947e-06  4.10561023e-05 -3.87273428e-05 
 1.96500000e-08  2.35543459e-06  4.10333112e-05 -3.86778766e-05 
 1.97500000e-08  2.37496638e-06  4.10035491e-05 -3.86285828e-05 
 1.98500000e-08  2.40156861e-06  4.09810288e-05 -3.85794601e-05 
 1.99500000e-08  2.42118155e-06  4.09516890e-05 -3.85305075e-05 
 2.00500000e-08  2.44769743e-06  4.09294211e-05 -3.84817237e-05 
 2.01500000e-08  2.46736380e-06  4.09004714e-05 -3.84331076e-05 
 2.02500000e-08  2.49378121e-06  4.08784395e-05 -3.83846583e-05 
 2.03500000e-08  2.51347822e-06  4.08498529e-05 -3.83363746e-05 
 2.04500000e-08  2.53978641e-06  4.08280422e-05 -3.82882558e-05 
 2.05500000e-08  2.55949522e-06  4.07997959e-05 -3.82403007e-05 
 2.06500000e-08  2.58568474e-06  4.07781933e-05 -3.81925086e-05 
 2.07500000e-08  2.60538968e-06  4.07502682e-05 -3.81448785e-05 
 2.08500000e-08  2.63145239e-06  4.07288621e-05 -3.80974097e-05 
 2.09500000e-08  2.65114033e-06  4.07012417e-05 -3.80501013e-05 
 2.10000000e-08  2.66566006e-06  4.06921672e-05 -3.80265071e-05 
 2.10100000e-08  2.66977777e-06  4.06915739e-05 -3.80217961e-05 
 2.10300000e-08  2.66493542e-06  4.06773064e-05 -3.80123710e-05 
 2.10700000e-08  2.68443232e-06  4.06779735e-05 -3.79935411e-05 
 2.11500000e-08  2.69495984e-06  4.06509245e-05 -3.79559647e-05 
 2.12500000e-08  2.72372130e-06  4.06328524e-05 -3.79091311e-05 
 2.13500000e-08  2.74144831e-06  4.06039069e-05 -3.78624586e-05 
 2.14500000e-08  2.76853937e-06  4.05844807e-05 -3.78159413e-05 
 2.15500000e-08  2.78698558e-06  4.05565668e-05 -3.77695812e-05 
 2.16500000e-08  2.81928822e-06  4.05426835e-05 -3.77233953e-05 
 2.17500000e-08  2.82744621e-06  4.05047950e-05 -3.76773488e-05 
 2.18500000e-08  2.82212643e-06  4.04534438e-05 -3.76313173e-05 
 2.19500000e-08  2.71229020e-06  4.02972003e-05 -3.75849101e-05 
 2.20000000e-08  2.26818148e-06  3.98289727e-05 -3.75607912e-05 
 2.20100000e-08  2.35060290e-06  3.99064786e-05 -3.75558757e-05 
 2.20300000e-08  2.88546769e-06  4.04318676e-05 -3.75463999e-05 
 2.20700000e-08  6.92476066e-06  4.44582735e-05 -3.75335128e-05 
 2.21500000e-08  2.00669543e-05  5.76201937e-05 -3.75532393e-05 
 2.22500000e-08  1.93297907e-05  5.69486554e-05 -3.76188647e-05 
 2.23500000e-08  1.19395798e-05  4.95969908e-05 -3.76574110e-05 
 2.24500000e-08  7.18266889e-06  4.48382799e-05 -3.76556111e-05 
 2.25500000e-08  4.65556422e-06  4.22888116e-05 -3.76332473e-05 
 2.26500000e-08  1.98768405e-06  3.95957455e-05 -3.76080614e-05 
 2.27500000e-08 -1.06830299e-06  3.65213062e-05 -3.75896092e-05 
 2.28500000e-08 -4.56115826e-06  3.30205336e-05 -3.75816919e-05 
 2.29500000e-08 -8.03973065e-06  2.95469987e-05 -3.75867294e-05 
 2.30500000e-08 -1.21286221e-05  2.54793315e-05 -3.76079537e-05 
 2.31500000e-08 -2.55181842e-05  1.21615439e-05 -3.76797281e-05 
 2.32500000e-08 -2.45299642e-05  1.32563145e-05 -3.77862787e-05 
 2.33500000e-08 -3.69860392e-07  3.74345706e-05 -3.78044310e-05 
 2.34500000e-08 -3.26086991e-07  3.74126750e-05 -3.77387620e-05 
 2.35500000e-08  1.03377213e-05  4.79729600e-05 -3.76352386e-05 
 2.36500000e-08  2.93864214e-06  4.04581922e-05 -3.75195500e-05 
 2.37500000e-08  1.05685214e-05  4.79708061e-05 -3.74022847e-05 
 2.38500000e-08  2.53699774e-06  3.98230087e-05 -3.72860110e-05 
 2.39500000e-08  9.83732818e-06  4.70093547e-05 -3.71720265e-05 
 2.40500000e-08  2.02644369e-06  3.90863132e-05 -3.70598695e-05 
 2.41500000e-08  9.22932480e-06  4.61792662e-05 -3.69499414e-05 
 2.42500000e-08  1.67472720e-06  3.85162965e-05 -3.68415693e-05 
 2.43500000e-08  8.77369335e-06  4.55088077e-05 -3.67351143e-05 
 2.44500000e-08  1.45148165e-06  3.80814130e-05 -3.66299314e-05 
 2.45500000e-08  8.43069858e-06  4.49570995e-05 -3.65264010e-05 
 2.46500000e-08  1.32037993e-06  3.77442948e-05 -3.64239149e-05 
 2.47500000e-08  8.16945108e-06  4.44923212e-05 -3.63228701e-05 
 2.48500000e-08  1.25579058e-06  3.74784802e-05 -3.62226896e-05 
 2.49500000e-08  7.96856208e-06  4.40923434e-05 -3.61237813e-05 
 2.50500000e-08  1.23995006e-06  3.72655441e-05 -3.60255940e-05 
 2.51500000e-08  7.81306110e-06  4.37416035e-05 -3.59285424e-05 
 2.52500000e-08  1.26032160e-06  3.70924186e-05 -3.58320970e-05 
 2.53500000e-08  7.69225823e-06  4.34289346e-05 -3.57366763e-05 
 2.54500000e-08  1.30788619e-06  3.69496557e-05 -3.56417696e-05 
 2.55500000e-08  7.59837630e-06  4.31461727e-05 -3.55477963e-05 
 2.56500000e-08  1.37604307e-06  3.68303055e-05 -3.54542624e-05 
 2.57500000e-08  7.52566153e-06  4.28872484e-05 -3.53615868e-05 
 2.58500000e-08  1.45988695e-06  3.67291769e-05 -3.52692899e-05 
 2.59500000e-08  7.46979241e-06  4.26475814e-05 -3.51777889e-05 
 2.60000000e-08  1.58431683e-06  3.67163993e-05 -3.51320825e-05 
 2.60100000e-08  4.40514857e-06  3.95281803e-05 -3.51230317e-05 
 2.60300000e-08  4.58711898e-06  3.96919639e-05 -3.51048449e-05 
 2.60700000e-08  4.42140568e-06  3.94899352e-05 -3.50685295e-05 
 2.61500000e-08  4.59853959e-06  3.95946819e-05 -3.49961423e-05 
 2.62500000e-08  4.45632495e-06  3.93624368e-05 -3.49061118e-05 
 2.63500000e-08  4.63461380e-06  3.94511815e-05 -3.48165677e-05 
 2.64500000e-08  4.50055046e-06  3.92280363e-05 -3.47274859e-05 
 2.65500000e-08  4.67685015e-06  3.93157003e-05 -3.46388501e-05 
