 time            v(Vout+)        v(Vout-)        v(vout+)-v(vout-)
 0.00000000e+00  3.54847066e-07  9.05794193e-02 -9.05790644e-02 
 1.00000000e-12  3.54909780e-07  9.05794194e-02 -9.05790644e-02 
 2.00000000e-12  3.54948109e-07  9.05794194e-02 -9.05790644e-02 
 4.00000000e-12  3.55000898e-07  9.05794194e-02 -9.05790644e-02 
 8.00000000e-12  3.55016785e-07  9.05794195e-02 -9.05790644e-02 
 1.60000000e-11  3.54940953e-07  9.05794194e-02 -9.05790644e-02 
 3.20000000e-11  3.54823240e-07  9.05794193e-02 -9.05790644e-02 
 6.40000000e-11  3.54808871e-07  9.05794193e-02 -9.05790644e-02 
 1.28000000e-10  3.54853272e-07  9.05794193e-02 -9.05790644e-02 
 2.28000000e-10  3.54856026e-07  9.05794193e-02 -9.05790644e-02 
 3.28000000e-10  3.54847766e-07  9.05794193e-02 -9.05790644e-02 
 4.28000000e-10  3.54836656e-07  9.05794193e-02 -9.05790644e-02 
 5.28000000e-10  3.54828077e-07  9.05794193e-02 -9.05790644e-02 
 6.28000000e-10  3.54818364e-07  9.05794193e-02 -9.05790644e-02 
 7.28000000e-10  3.54806793e-07  9.05794193e-02 -9.05790644e-02 
 8.28000000e-10  3.54792480e-07  9.05794192e-02 -9.05790644e-02 
 9.28000000e-10  3.54779745e-07  9.05794192e-02 -9.05790644e-02 
 1.00000000e-09  3.54777366e-07  9.05794192e-02 -9.05790644e-02 
 1.01000000e-09  5.80961432e-07  9.05796454e-02 -9.05790644e-02 
 1.03000000e-09  3.56367870e-07  9.05794208e-02 -9.05790644e-02 
 1.07000000e-09  1.65833384e-07  9.05792303e-02 -9.05790644e-02 
 1.15000000e-09  4.77698679e-07  9.05795421e-02 -9.05790644e-02 
 1.25000000e-09  2.67560791e-07  9.05793320e-02 -9.05790644e-02 
 1.35000000e-09  4.61211692e-07  9.05795257e-02 -9.05790644e-02 
 1.45000000e-09  5.92843318e-07  9.05796573e-02 -9.05790645e-02 
 1.55000000e-09 -2.60522480e-07  9.05788039e-02 -9.05790645e-02 
 1.65000000e-09  2.06976677e-06  9.05811343e-02 -9.05790645e-02 
 1.75000000e-09  3.52926283e-07  9.05794176e-02 -9.05790646e-02 
 1.85000000e-09 -5.92193968e-06  9.05731426e-02 -9.05790645e-02 
 1.95000000e-09 -2.79172941e-05  9.05511456e-02 -9.05790629e-02 
 2.00000000e-09 -9.07344582e-05  9.04883258e-02 -9.05790603e-02 
 2.01000000e-09 -1.08137032e-04  9.04709223e-02 -9.05790594e-02 
 2.03000000e-09 -1.21248381e-04  9.04578088e-02 -9.05790572e-02 
 2.07000000e-09  2.29774035e-04  9.08088273e-02 -9.05790533e-02 
 2.15000000e-09  3.76484578e-03  9.43439990e-02 -9.05791532e-02 
 2.25000000e-09  8.64150481e-03  9.92213549e-02 -9.05798500e-02 
 2.35000000e-09  8.54153608e-03  9.91230321e-02 -9.05814960e-02 
 2.45000000e-09  5.75433071e-03  9.63384093e-02 -9.05840786e-02 
 2.55000000e-09  1.13316283e-04  9.07008953e-02 -9.05875790e-02 
 2.65000000e-09 -8.92978000e-03  8.16625315e-02 -9.05923116e-02 
 2.75000000e-09 -9.63010301e-03  8.09683993e-02 -9.05985023e-02 
 2.85000000e-09 -6.44008259e-03  8.41655887e-02 -9.06056713e-02 
 2.95000000e-09 -4.49349840e-03  8.61195179e-02 -9.06130163e-02 
 3.05000000e-09 -3.03505250e-03  8.75849963e-02 -9.06200488e-02 
 3.15000000e-09 -1.99815490e-03  8.86284125e-02 -9.06265674e-02 
 3.25000000e-09 -1.23939104e-03  8.93930978e-02 -9.06324888e-02 
 3.35000000e-09 -7.02237027e-04  8.99355491e-02 -9.06377861e-02 
 3.45000000e-09 -3.10381278e-04  9.03320768e-02 -9.06424581e-02 
 3.55000000e-09 -4.27045596e-05  9.06038108e-02 -9.06465153e-02 
 3.65000000e-09  1.50549314e-04  9.08005226e-02 -9.06499733e-02 
 3.75000000e-09  2.72132537e-04  9.09249819e-02 -9.06528493e-02 
 3.85000000e-09  3.58131612e-04  9.10132929e-02 -9.06551613e-02 
 3.95000000e-09  4.01532894e-04  9.10584597e-02 -9.06569268e-02 
 4.05000000e-09  4.30879389e-04  9.10890422e-02 -9.06581628e-02 
 4.15000000e-09  4.33815847e-04  9.10927014e-02 -9.06588856e-02 
 4.25000000e-09  4.34594778e-04  9.10937055e-02 -9.06591108e-02 
 4.35000000e-09  4.17926185e-04  9.10767795e-02 -9.06588533e-02 
 4.45000000e-09  4.05578168e-04  9.10637057e-02 -9.06581276e-02 
 4.55000000e-09  3.80672279e-04  9.10376194e-02 -9.06569472e-02 
 4.65000000e-09  3.63513924e-04  9.10188391e-02 -9.06553252e-02 
 4.75000000e-09  3.36398087e-04  9.09896724e-02 -9.06532743e-02 
 4.85000000e-09  3.18749532e-04  9.09695561e-02 -9.06508066e-02 
 4.95000000e-09  2.92468451e-04  9.09404021e-02 -9.06479336e-02 
 5.05000000e-09  2.76431619e-04  9.09210983e-02 -9.06446667e-02 
 5.15000000e-09  2.52387801e-04  9.08934044e-02 -9.06410166e-02 
 5.25000000e-09  2.38855338e-04  9.08758490e-02 -9.06369936e-02 
 5.35000000e-09  2.17568021e-04  9.08501760e-02 -9.06326080e-02 
 5.45000000e-09  2.06792849e-04  9.08346622e-02 -9.06278694e-02 
 5.55000000e-09  1.88323849e-04  9.08111110e-02 -9.06227871e-02 
 5.65000000e-09  1.80237274e-04  9.07976077e-02 -9.06173704e-02 
 5.75000000e-09  1.64427421e-04  9.07760554e-02 -9.06116280e-02 
 5.85000000e-09  1.58813586e-04  9.07643821e-02 -9.06055685e-02 
 5.95000000e-09  1.45411270e-04  9.07446114e-02 -9.05992001e-02 
 6.00000000e-09  1.45791521e-04  9.07416939e-02 -9.05959024e-02 
 6.01000000e-09  1.42480742e-04  9.07377131e-02 -9.05952324e-02 
 6.03000000e-09  1.41139959e-04  9.07350265e-02 -9.05938865e-02 
 6.07000000e-09  1.38732592e-04  9.07298921e-02 -9.05911595e-02 
 6.15000000e-09  1.32944566e-04  9.07185110e-02 -9.05855664e-02 
 6.25000000e-09  1.27354294e-04  9.07056731e-02 -9.05783189e-02 
 6.35000000e-09  1.22146732e-04  9.06929399e-02 -9.05707932e-02 
 6.45000000e-09  1.17871728e-04  9.06808683e-02 -9.05629966e-02 
 6.55000000e-09  1.13657343e-04  9.06685932e-02 -9.05549359e-02 
 6.65000000e-09  1.11193404e-04  9.06578113e-02 -9.05466179e-02 
 6.75000000e-09  1.09272441e-04  9.06473215e-02 -9.05380491e-02 
 6.85000000e-09  1.08083058e-04  9.06373191e-02 -9.05292360e-02 
 6.95000000e-09  1.07396649e-04  9.06275817e-02 -9.05201850e-02 
 7.00000000e-09  1.07107400e-04  9.06226794e-02 -9.05155720e-02 
 7.01000000e-09  1.07295123e-04  9.06219365e-02 -9.05146413e-02 
 7.03000000e-09  1.07048120e-04  9.06198236e-02 -9.05127755e-02 
 7.07000000e-09  1.06826213e-04  9.06158428e-02 -9.05090166e-02 
 7.15000000e-09  1.07266799e-04  9.06086582e-02 -9.05013914e-02 
 7.25000000e-09  1.07704048e-04  9.05993663e-02 -9.04916623e-02 
 7.35000000e-09  1.08888053e-04  9.05906064e-02 -9.04817184e-02 
 7.45000000e-09  1.10196630e-04  9.05817619e-02 -9.04715653e-02 
 7.55000000e-09  1.12085729e-04  9.05732940e-02 -9.04612083e-02 
 7.65000000e-09  1.14147520e-04  9.05648001e-02 -9.04506526e-02 
 7.75000000e-09  1.16673409e-04  9.05565767e-02 -9.04399033e-02 
 7.85000000e-09  1.19387207e-04  9.05483525e-02 -9.04289653e-02 
 7.95000000e-09  1.22480349e-04  9.05403238e-02 -9.04178435e-02 
 8.05000000e-09  1.25761414e-04  9.05323039e-02 -9.04065425e-02 
 8.15000000e-09  1.29358315e-04  9.05244252e-02 -9.03950669e-02 
 8.25000000e-09  1.33136382e-04  9.05165577e-02 -9.03834213e-02 
 8.35000000e-09  1.37180796e-04  9.05087908e-02 -9.03716100e-02 
 8.45000000e-09  1.41396447e-04  9.05010338e-02 -9.03596373e-02 
 8.55000000e-09  1.45839440e-04  9.04933468e-02 -9.03475074e-02 
 8.65000000e-09  1.50442314e-04  9.04856666e-02 -9.03352243e-02 
 8.75000000e-09  1.55241144e-04  9.04780332e-02 -9.03227921e-02 
 8.85000000e-09  1.60188278e-04  9.04704028e-02 -9.03102146e-02 
 8.95000000e-09  1.65305956e-04  9.04628015e-02 -9.02974956e-02 
 9.05000000e-09  1.70560529e-04  9.04551993e-02 -9.02846388e-02 
 9.15000000e-09  1.75964841e-04  9.04476127e-02 -9.02716479e-02 
 9.25000000e-09  1.81495186e-04  9.04400216e-02 -9.02585264e-02 
 9.35000000e-09  1.87157987e-04  9.04324358e-02 -9.02452778e-02 
 9.45000000e-09  1.92936653e-04  9.04248421e-02 -9.02319054e-02 
 9.55000000e-09  1.98833253e-04  9.04172459e-02 -9.02184126e-02 
 9.65000000e-09  2.04836336e-04  9.04096389e-02 -9.02048026e-02 
 9.75000000e-09  2.10945056e-04  9.04020236e-02 -9.01910785e-02 
 9.85000000e-09  2.17151685e-04  9.03943952e-02 -9.01772435e-02 
 9.95000000e-09  2.23453418e-04  9.03867540e-02 -9.01633005e-02 
 1.00500000e-08  2.29845255e-04  9.03790978e-02 -9.01492526e-02 
 1.01500000e-08  2.36323101e-04  9.03714256e-02 -9.01351025e-02 
 1.02500000e-08  2.42883917e-04  9.03637371e-02 -9.01208532e-02 
 1.03500000e-08  2.49522793e-04  9.03560301e-02 -9.01065073e-02 
 1.04500000e-08  2.56238199e-04  9.03483058e-02 -9.00920676e-02 
 1.05500000e-08  2.63024702e-04  9.03405614e-02 -9.00775367e-02 
 1.06500000e-08  2.69881866e-04  9.03327990e-02 -9.00629171e-02 
 1.07500000e-08  2.76803953e-04  9.03250154e-02 -9.00482115e-02 
 1.08500000e-08  2.83791370e-04  9.03172135e-02 -9.00334222e-02 
 1.09500000e-08  2.90838221e-04  9.03093899e-02 -9.00185516e-02 
 1.10000000e-08  2.94385239e-04  9.03054718e-02 -9.00110866e-02 
 1.10100000e-08  2.95299409e-04  9.03048902e-02 -9.00095908e-02 
 1.10300000e-08  2.96529340e-04  9.03031271e-02 -9.00065978e-02 
 1.10700000e-08  2.99210745e-04  9.02998133e-02 -9.00006025e-02 
 1.11500000e-08  3.05212141e-04  9.02937878e-02 -8.99885756e-02 
 1.12500000e-08  3.12245374e-04  9.02857207e-02 -8.99734753e-02 
 1.13500000e-08  3.19675743e-04  9.02779786e-02 -8.99583029e-02 
 1.14500000e-08  3.26978733e-04  9.02700392e-02 -8.99430605e-02 
 1.15500000e-08  3.34374400e-04  9.02621246e-02 -8.99277502e-02 
 1.16500000e-08  3.42971331e-04  9.02553455e-02 -8.99123742e-02 
 1.17500000e-08  3.50636507e-04  9.02475710e-02 -8.98969345e-02 
 1.18500000e-08  3.49732066e-04  9.02311649e-02 -8.98814328e-02 
 1.19500000e-08  3.23129750e-04  9.01889989e-02 -8.98658692e-02 
 1.20000000e-08  2.49101632e-04  9.01071646e-02 -8.98580629e-02 
 1.20100000e-08  2.26262250e-04  9.00827614e-02 -8.98564991e-02 
 1.20300000e-08  1.92984372e-04  9.00463543e-02 -8.98533699e-02 
 1.20700000e-08  4.42367764e-04  9.02894714e-02 -8.98471037e-02 
 1.21500000e-08  3.74595363e-03  9.35805900e-02 -8.98346363e-02 
 1.22500000e-08  1.02984172e-02  1.00118020e-01 -8.98196032e-02 
 1.23500000e-08  1.37988758e-02  1.03604591e-01 -8.98057152e-02 
 1.24500000e-08  1.34081363e-02  1.03201245e-01 -8.97931089e-02 
 1.25500000e-08  1.14400070e-02  1.01221492e-01 -8.97814847e-02 
 1.26500000e-08  8.51572897e-03  9.82862416e-02 -8.97705127e-02 
 1.27500000e-08  4.58885921e-03  9.43489121e-02 -8.97600529e-02 
 1.28500000e-08 -2.80499614e-04  8.94696489e-02 -8.97501485e-02 
 1.29500000e-08 -6.07173507e-03  8.36692377e-02 -8.97409727e-02 
 1.30500000e-08 -1.55193392e-02  7.42135727e-02 -8.97329119e-02 
 1.31500000e-08 -2.29548300e-02  6.67716819e-02 -8.97265118e-02 
 1.32500000e-08 -2.12477176e-02  6.84741136e-02 -8.97218312e-02 
 1.33500000e-08 -1.57799996e-02  7.39380723e-02 -8.97180719e-02 
 1.34500000e-08 -1.04648918e-02  7.92492807e-02 -8.97141725e-02 
 1.35500000e-08 -6.30996364e-03  8.33994311e-02 -8.97093947e-02 
 1.36500000e-08 -3.27878586e-03  8.64245817e-02 -8.97033676e-02 
 1.37500000e-08 -1.12753186e-03  8.85684172e-02 -8.96959490e-02 
 1.38500000e-08  3.67000624e-04  9.00541124e-02 -8.96871118e-02 
 1.39500000e-08  1.38344659e-03  9.10603269e-02 -8.96768803e-02 
 1.40500000e-08  2.05063668e-03  9.17159363e-02 -8.96652996e-02 
 1.41500000e-08  2.46839772e-03  9.21208194e-02 -8.96524217e-02 
 1.42500000e-08  2.70583596e-03  9.23441354e-02 -8.96382994e-02 
 1.43500000e-08  2.81832397e-03  9.24413076e-02 -8.96229837e-02 
 1.44500000e-08  2.84203560e-03  9.24485585e-02 -8.96065229e-02 
 1.45500000e-08  2.80785320e-03  9.23968158e-02 -8.95889626e-02 
 1.46500000e-08  2.73380601e-03  9.23041514e-02 -8.95703454e-02 
 1.47500000e-08  2.63727044e-03  9.21879820e-02 -8.95507115e-02 
 1.48500000e-08  2.52631086e-03  9.20564094e-02 -8.95300986e-02 
 1.49500000e-08  2.41090190e-03  9.19194440e-02 -8.95085421e-02 
 1.50500000e-08  2.29369851e-03  9.17797740e-02 -8.94860755e-02 
 1.51500000e-08  2.18067403e-03  9.16434045e-02 -8.94627305e-02 
 1.52500000e-08  2.07160659e-03  9.15101436e-02 -8.94385370e-02 
 1.53500000e-08  1.97035310e-03  9.13838766e-02 -8.94135235e-02 
 1.54500000e-08  1.87521235e-03  9.12629293e-02 -8.93877170e-02 
 1.55500000e-08  1.78895962e-03  9.11501028e-02 -8.93611432e-02 
 1.56500000e-08  1.70917549e-03  9.10430022e-02 -8.93338267e-02 
 1.57500000e-08  1.63811289e-03  9.09439039e-02 -8.93057910e-02 
 1.58500000e-08  1.57304105e-03  9.08500994e-02 -8.92770584e-02 
 1.59500000e-08  1.51598585e-03  9.07636363e-02 -8.92476504e-02 
 1.60000000e-08  1.48899645e-03  9.07216955e-02 -8.92326990e-02 
 1.60100000e-08  1.48393852e-03  9.07136246e-02 -8.92296861e-02 
 1.60300000e-08  1.47413400e-03  9.06977813e-02 -8.92236473e-02 
 1.60700000e-08  1.45526904e-03  9.06667625e-02 -8.92114935e-02 
 1.61500000e-08  1.41920869e-03  9.06060934e-02 -8.91868847e-02 
 1.62500000e-08  1.37961968e-03  9.05351907e-02 -8.91555710e-02 
 1.63500000e-08  1.34475518e-03  9.04684148e-02 -8.91236596e-02 
 1.64500000e-08  1.31456259e-03  9.04057306e-02 -8.90911680e-02 
 1.65500000e-08  1.28786893e-03  9.03459820e-02 -8.90581131e-02 
 1.66500000e-08  1.26596009e-03  9.02904712e-02 -8.90245111e-02 
 1.67500000e-08  1.24770127e-03  9.02380793e-02 -8.89903780e-02 
 1.68500000e-08  1.23286098e-03  9.01885900e-02 -8.89557290e-02 
 1.69500000e-08  1.22101001e-03  9.01415890e-02 -8.89205790e-02 
 1.70000000e-08  1.21593830e-03  9.01187584e-02 -8.89028201e-02 
 1.70100000e-08  1.21523425e-03  9.01144858e-02 -8.88992515e-02 
 1.70300000e-08  1.21330237e-03  9.01054071e-02 -8.88921047e-02 
 1.70700000e-08  1.20991535e-03  9.00876696e-02 -8.88777542e-02 
 1.71500000e-08  1.20487293e-03  9.00537018e-02 -8.88488289e-02 
 1.72500000e-08  1.20017265e-03  9.00124324e-02 -8.88122598e-02 
 1.73500000e-08  1.19782761e-03  8.99730717e-02 -8.87752441e-02 
 1.74500000e-08  1.19716054e-03  8.99349551e-02 -8.87377945e-02 
 1.75500000e-08  1.19842243e-03  8.98983456e-02 -8.86999231e-02 
 1.76500000e-08  1.20114461e-03  8.98627865e-02 -8.86616419e-02 
 1.77500000e-08  1.20546302e-03  8.98284253e-02 -8.86229623e-02 
 1.78500000e-08  1.21104256e-03  8.97949380e-02 -8.85838954e-02 
 1.79500000e-08  1.21795479e-03  8.97624071e-02 -8.85444523e-02 
 1.80500000e-08  1.22595430e-03  8.97305978e-02 -8.85046435e-02 
 1.81500000e-08  1.23507510e-03  8.96995544e-02 -8.84644793e-02 
 1.82500000e-08  1.24513430e-03  8.96691040e-02 -8.84239697e-02 
 1.83500000e-08  1.25614294e-03  8.96392674e-02 -8.83831245e-02 
 1.84500000e-08  1.26796335e-03  8.96099164e-02 -8.83419531e-02 
 1.85500000e-08  1.28059255e-03  8.95810574e-02 -8.83004648e-02 
 1.86500000e-08  1.29392592e-03  8.95525946e-02 -8.82586687e-02 
 1.87500000e-08  1.30795238e-03  8.95245258e-02 -8.82165734e-02 
 1.88500000e-08  1.32259158e-03  8.94967793e-02 -8.81741877e-02 
 1.89500000e-08  1.33782798e-03  8.94693477e-02 -8.81315197e-02 
 1.90500000e-08  1.35359944e-03  8.94421772e-02 -8.80885777e-02 
 1.91500000e-08  1.36988823e-03  8.94152579e-02 -8.80453696e-02 
 1.92500000e-08  1.38664586e-03  8.93885490e-02 -8.80019031e-02 
 1.93500000e-08  1.40385396e-03  8.93620398e-02 -8.79581858e-02 
 1.94500000e-08  1.42147433e-03  8.93356994e-02 -8.79142251e-02 
 1.95500000e-08  1.43948885e-03  8.93095169e-02 -8.78700281e-02 
 1.96500000e-08  1.45786721e-03  8.92834690e-02 -8.78256018e-02 
 1.97500000e-08  1.47659201e-03  8.92575451e-02 -8.77809531e-02 
 1.98500000e-08  1.49563905e-03  8.92317278e-02 -8.77360887e-02 
 1.99500000e-08  1.51499194e-03  8.92060071e-02 -8.76910152e-02 
 2.00500000e-08  1.53463118e-03  8.91803700e-02 -8.76457388e-02 
 2.01500000e-08  1.55454151e-03  8.91548074e-02 -8.76002659e-02 
 2.02500000e-08  1.57470715e-03  8.91293096e-02 -8.75546025e-02 
 2.03500000e-08  1.59511398e-03  8.91038685e-02 -8.75087545e-02 
 2.04500000e-08  1.61574915e-03  8.90784769e-02 -8.74627277e-02 
 2.05500000e-08  1.63659965e-03  8.90531275e-02 -8.74165279e-02 
 2.06500000e-08  1.65765500e-03  8.90278155e-02 -8.73701605e-02 
 2.07500000e-08  1.67890318e-03  8.90025342e-02 -8.73236310e-02 
 2.08500000e-08  1.70033560e-03  8.89772802e-02 -8.72769446e-02 
 2.09500000e-08  1.72194119e-03  8.89520477e-02 -8.72301065e-02 
 2.10000000e-08  1.73280745e-03  8.89394394e-02 -8.72066320e-02 
 2.10100000e-08  1.73516643e-03  8.89370984e-02 -8.72019320e-02 
 2.10300000e-08  1.73936348e-03  8.89318927e-02 -8.71925292e-02 
 2.10700000e-08  1.74794894e-03  8.89216555e-02 -8.71737065e-02 
 2.11500000e-08  1.76572854e-03  8.89017226e-02 -8.71359941e-02 
 2.12500000e-08  1.78765178e-03  8.88763826e-02 -8.70887308e-02 
 2.13500000e-08  1.81001179e-03  8.88513471e-02 -8.70413353e-02 
 2.14500000e-08  1.83236580e-03  8.88261780e-02 -8.69938122e-02 
 2.15500000e-08  1.85487172e-03  8.88010377e-02 -8.69461660e-02 
 2.16500000e-08  1.87835016e-03  8.87767513e-02 -8.68984012e-02 
 2.17500000e-08  1.90242333e-03  8.87529454e-02 -8.68505221e-02 
 2.18500000e-08  1.91725121e-03  8.87197840e-02 -8.68025328e-02 
 2.19500000e-08  1.90381817e-03  8.86582535e-02 -8.67544353e-02 
 2.20000000e-08  1.84053221e-03  8.85708776e-02 -8.67303454e-02 
 2.20100000e-08  1.81945213e-03  8.85449755e-02 -8.67255234e-02 
 2.20300000e-08  1.78344805e-03  8.84993249e-02 -8.67158769e-02 
 2.20700000e-08  1.95951183e-03  8.86560821e-02 -8.66965703e-02 
 2.21500000e-08  4.91143383e-03  9.15694216e-02 -8.66579878e-02 
 2.22500000e-08  1.14232249e-02  9.80334529e-02 -8.66102281e-02 
 2.23500000e-08  1.58133786e-02  1.02376937e-01 -8.65635580e-02 
 2.24500000e-08  1.63530428e-02  1.02871263e-01 -8.65182204e-02 
 2.25500000e-08  1.47525468e-02  1.01226523e-01 -8.64739758e-02 
 2.26500000e-08  1.23289560e-02  9.87593821e-02 -8.64304261e-02 
 2.27500000e-08  9.25065755e-03  9.56379482e-02 -8.63872906e-02 
 2.28500000e-08  5.47703143e-03  9.18215032e-02 -8.63444717e-02 
 2.29500000e-08  1.04765599e-03  8.73496713e-02 -8.63020153e-02 
 2.30500000e-08 -3.92574558e-03  8.23343148e-02 -8.62600604e-02 
 2.31500000e-08 -1.01146175e-02  7.61042204e-02 -8.62188380e-02 
 2.32500000e-08 -2.00925227e-02  6.60862880e-02 -8.61788108e-02 
 2.33500000e-08 -2.58151666e-02  6.03253576e-02 -8.61405242e-02 
 2.34500000e-08 -2.32600094e-02  6.28439014e-02 -8.61039108e-02 
 2.35500000e-08 -1.69946935e-02  6.90733849e-02 -8.60680784e-02 
 2.36500000e-08 -1.05937813e-02  7.54381435e-02 -8.60319248e-02 
 2.37500000e-08 -5.38798863e-03  8.06066633e-02 -8.59946520e-02 
 2.38500000e-08 -1.51830793e-03  8.44375261e-02 -8.59558340e-02 
 2.39500000e-08  1.22227490e-03  8.71375780e-02 -8.59153031e-02 
 2.40500000e-08  3.10678758e-03  8.89798194e-02 -8.58730319e-02 
 2.41500000e-08  4.35597477e-03  9.01850342e-02 -8.58290594e-02 
 2.42500000e-08  5.15322081e-03  9.09366720e-02 -8.57834512e-02 
 2.43500000e-08  5.62295525e-03  9.13592358e-02 -8.57362806e-02 
 2.44500000e-08  5.86874326e-03  9.15563635e-02 -8.56876203e-02 
 2.45500000e-08  5.95405827e-03  9.15915977e-02 -8.56375394e-02 
 2.46500000e-08  5.93688236e-03  9.15229848e-02 -8.55861025e-02 
 2.47500000e-08  5.84716183e-03  9.13805310e-02 -8.55333692e-02 
 2.48500000e-08  5.71808958e-03  9.11974845e-02 -8.54793949e-02 
 2.49500000e-08  5.56153673e-03  9.09857680e-02 -8.54242313e-02 
 2.50500000e-08  5.39734761e-03  9.07652737e-02 -8.53679261e-02 
 2.51500000e-08  5.22775970e-03  9.05382840e-02 -8.53105243e-02 
 2.52500000e-08  5.06551071e-03  9.03175786e-02 -8.52520679e-02 
 2.53500000e-08  4.90780318e-03  9.01003996e-02 -8.51925964e-02 
 2.54500000e-08  4.76366399e-03  8.98958110e-02 -8.51321470e-02 
 2.55500000e-08  4.62775350e-03  8.96985086e-02 -8.50707551e-02 
 2.56500000e-08  4.50722249e-03  8.95156763e-02 -8.50084538e-02 
 2.57500000e-08  4.39552547e-03  8.93408003e-02 -8.49452749e-02 
 2.58500000e-08  4.29891363e-03  8.91801620e-02 -8.48812484e-02 
 2.59500000e-08  4.21033914e-03  8.90267422e-02 -8.48164030e-02 
 2.60000000e-08  4.17254194e-03  8.89562230e-02 -8.47836811e-02 
 2.60100000e-08  4.16398543e-03  8.89410947e-02 -8.47771093e-02 
 2.60300000e-08  4.14929368e-03  8.89132440e-02 -8.47639503e-02 
 2.60700000e-08  4.12118464e-03  8.88587249e-02 -8.47375402e-02 
 2.61500000e-08  4.06867008e-03  8.87530277e-02 -8.46843576e-02 
 2.62500000e-08  4.01174618e-03  8.86289614e-02 -8.46172152e-02 
 2.63500000e-08  3.96298846e-03  8.85123450e-02 -8.45493565e-02 
 2.64500000e-08  3.92200401e-03  8.84028085e-02 -8.44808045e-02 
 2.65500000e-08  3.88743255e-03  8.82990137e-02 -8.44115811e-02 
