 time            v(Vout+)        v(Vout-)        v(vout+)-v(vout-)
 0.00000000e+00  3.54669292e-07  7.87156823e-02 -7.87153277e-02 
 1.00000000e-12  3.54729576e-07  7.87156824e-02 -7.87153277e-02 
 2.00000000e-12  3.54766473e-07  7.87156824e-02 -7.87153277e-02 
 4.00000000e-12  3.54817654e-07  7.87156825e-02 -7.87153277e-02 
 8.00000000e-12  3.54833378e-07  7.87156825e-02 -7.87153277e-02 
 1.60000000e-11  3.54760857e-07  7.87156824e-02 -7.87153277e-02 
 3.20000000e-11  3.54650663e-07  7.87156823e-02 -7.87153277e-02 
 6.40000000e-11  3.54640909e-07  7.87156823e-02 -7.87153277e-02 
 1.28000000e-10  3.54686827e-07  7.87156824e-02 -7.87153277e-02 
 2.28000000e-10  3.54696320e-07  7.87156824e-02 -7.87153277e-02 
 3.28000000e-10  3.54700841e-07  7.87156824e-02 -7.87153277e-02 
 4.28000000e-10  3.54699845e-07  7.87156824e-02 -7.87153277e-02 
 5.28000000e-10  3.54699838e-07  7.87156824e-02 -7.87153277e-02 
 6.28000000e-10  3.54696760e-07  7.87156824e-02 -7.87153277e-02 
 7.28000000e-10  3.54692812e-07  7.87156824e-02 -7.87153277e-02 
 8.28000000e-10  3.54685654e-07  7.87156824e-02 -7.87153277e-02 
 9.28000000e-10  3.54678619e-07  7.87156823e-02 -7.87153277e-02 
 1.00000000e-09  3.54677764e-07  7.87156823e-02 -7.87153277e-02 
 1.01000000e-09  5.78959911e-07  7.87159066e-02 -7.87153277e-02 
 1.03000000e-09  3.57155294e-07  7.87156848e-02 -7.87153277e-02 
 1.07000000e-09  1.68574041e-07  7.87154962e-02 -7.87153277e-02 
 1.15000000e-09  4.76081461e-07  7.87158038e-02 -7.87153277e-02 
 1.25000000e-09  2.68198740e-07  7.87155959e-02 -7.87153277e-02 
 1.35000000e-09  4.58865320e-07  7.87157865e-02 -7.87153277e-02 
 1.45000000e-09  5.97472477e-07  7.87159252e-02 -7.87153277e-02 
 1.55000000e-09 -2.33061355e-07  7.87150946e-02 -7.87153277e-02 
 1.65000000e-09  1.77048119e-06  7.87170982e-02 -7.87153277e-02 
 1.75000000e-09  1.10043415e-06  7.87164283e-02 -7.87153279e-02 
 1.85000000e-09 -6.38510220e-06  7.87089427e-02 -7.87153278e-02 
 1.95000000e-09 -4.49374998e-05  7.86703880e-02 -7.87153255e-02 
 2.00000000e-09 -1.08830666e-04  7.86064912e-02 -7.87153219e-02 
 2.01000000e-09 -1.11632364e-04  7.86036883e-02 -7.87153207e-02 
 2.03000000e-09 -5.57774850e-05  7.86595407e-02 -7.87153181e-02 
 2.07000000e-09  7.52338148e-04  7.94676562e-02 -7.87153180e-02 
 2.15000000e-09  5.43748227e-03  8.41529710e-02 -7.87154887e-02 
 2.25000000e-09  9.21179340e-03  8.79281966e-02 -7.87164032e-02 
 2.35000000e-09  8.25527037e-03  8.69735935e-02 -7.87183231e-02 
 2.45000000e-09  4.53799308e-03  8.32591907e-02 -7.87211977e-02 
 2.55000000e-09 -2.48013702e-03  7.62449648e-02 -7.87251018e-02 
 2.65000000e-09 -9.95328151e-03  6.87770926e-02 -7.87303741e-02 
 2.75000000e-09 -7.85479127e-03  7.08822312e-02 -7.87370225e-02 
 2.85000000e-09 -5.44668703e-03  7.32976925e-02 -7.87443795e-02 
 2.95000000e-09 -3.82775279e-03  7.49239851e-02 -7.87517379e-02 
 3.05000000e-09 -2.62766458e-03  7.61310905e-02 -7.87587550e-02 
 3.15000000e-09 -1.76666480e-03  7.69986213e-02 -7.87652861e-02 
 3.25000000e-09 -1.12768565e-03  7.76435872e-02 -7.87712729e-02 
 3.35000000e-09 -6.73688493e-04  7.81030097e-02 -7.87766982e-02 
 3.45000000e-09 -3.34897104e-04  7.84466661e-02 -7.87815632e-02 
 3.55000000e-09 -1.03095908e-04  7.86827819e-02 -7.87858779e-02 
 3.65000000e-09  7.06414939e-05  7.88602970e-02 -7.87896555e-02 
 3.75000000e-09  1.79983078e-04  7.89728940e-02 -7.87929109e-02 
 3.85000000e-09  2.62901523e-04  7.90585609e-02 -7.87956593e-02 
 3.95000000e-09  3.05318458e-04  7.91032342e-02 -7.87979157e-02 
 4.05000000e-09  3.39064804e-04  7.91387593e-02 -7.87996945e-02 
 4.15000000e-09  3.45822321e-04  7.91468322e-02 -7.88010099e-02 
 4.25000000e-09  3.53859002e-04  7.91557342e-02 -7.88018752e-02 
 4.35000000e-09  3.42536646e-04  7.91448402e-02 -7.88023035e-02 
 4.45000000e-09  3.38004854e-04  7.91403121e-02 -7.88023073e-02 
 4.55000000e-09  3.18387494e-04  7.91202860e-02 -7.88018985e-02 
 4.65000000e-09  3.08540939e-04  7.91096297e-02 -7.88010888e-02 
 4.75000000e-09  2.85968894e-04  7.90858581e-02 -7.87998892e-02 
 4.85000000e-09  2.74709305e-04  7.90730198e-02 -7.87983105e-02 
 4.95000000e-09  2.51999065e-04  7.90483621e-02 -7.87963630e-02 
 5.05000000e-09  2.41333304e-04  7.90353901e-02 -7.87940568e-02 
 5.15000000e-09  2.19882578e-04  7.90112842e-02 -7.87914016e-02 
 5.25000000e-09  2.10759325e-04  7.89991660e-02 -7.87884066e-02 
 5.35000000e-09  1.91181012e-04  7.89762620e-02 -7.87850810e-02 
 5.45000000e-09  1.83970118e-04  7.89654037e-02 -7.87814335e-02 
 5.55000000e-09  1.66453981e-04  7.89439267e-02 -7.87774727e-02 
 5.65000000e-09  1.61218559e-04  7.89344252e-02 -7.87732067e-02 
 5.75000000e-09  1.45736755e-04  7.89143803e-02 -7.87686435e-02 
 5.85000000e-09  1.42386161e-04  7.89061771e-02 -7.87637909e-02 
 5.95000000e-09  1.28806517e-04  7.88874629e-02 -7.87586564e-02 
 6.00000000e-09  1.30647117e-04  7.88866327e-02 -7.87559856e-02 
 6.01000000e-09  1.26869943e-04  7.88823118e-02 -7.87554419e-02 
 6.03000000e-09  1.25634925e-04  7.88799840e-02 -7.87543491e-02 
 6.07000000e-09  1.23458401e-04  7.88755897e-02 -7.87521313e-02 
 6.15000000e-09  1.18029604e-04  7.88655984e-02 -7.87475688e-02 
 6.25000000e-09  1.12756107e-04  7.88543878e-02 -7.87416317e-02 
 6.35000000e-09  1.07695192e-04  7.88431360e-02 -7.87354408e-02 
 6.45000000e-09  1.03600458e-04  7.88326029e-02 -7.87290025e-02 
 6.55000000e-09  9.96303136e-05  7.88219534e-02 -7.87223231e-02 
 6.65000000e-09  9.67810371e-05  7.88121898e-02 -7.87154088e-02 
 6.75000000e-09  9.44522426e-05  7.88027179e-02 -7.87082656e-02 
 6.85000000e-09  9.28552223e-05  7.87937546e-02 -7.87008994e-02 
 6.95000000e-09  9.16648696e-05  7.87849808e-02 -7.86933159e-02 
 7.00000000e-09  9.10900615e-05  7.87805343e-02 -7.86894443e-02 
 7.01000000e-09  9.12130509e-05  7.87798756e-02 -7.86886626e-02 
 7.03000000e-09  9.08670510e-05  7.87779621e-02 -7.86870951e-02 
 7.07000000e-09  9.04300558e-05  7.87743653e-02 -7.86839353e-02 
 7.15000000e-09  9.03900072e-05  7.87679076e-02 -7.86775176e-02 
 7.25000000e-09  9.01956412e-05  7.87595106e-02 -7.86693149e-02 
 7.35000000e-09  9.06959168e-05  7.87516123e-02 -7.86609163e-02 
 7.45000000e-09  9.12898341e-05  7.87436166e-02 -7.86523268e-02 
 7.55000000e-09  9.24241101e-05  7.87359752e-02 -7.86435511e-02 
 7.65000000e-09  9.37055501e-05  7.87282996e-02 -7.86345941e-02 
 7.75000000e-09  9.54195509e-05  7.87208799e-02 -7.86254603e-02 
 7.85000000e-09  9.72999764e-05  7.87134544e-02 -7.86161544e-02 
 7.95000000e-09  9.95359982e-05  7.87062167e-02 -7.86066807e-02 
 8.05000000e-09  1.01943483e-04  7.86989869e-02 -7.85970434e-02 
 8.15000000e-09  1.04647480e-04  7.86918944e-02 -7.85872469e-02 
 8.25000000e-09  1.07519758e-04  7.86848150e-02 -7.85772953e-02 
 8.35000000e-09  1.10643381e-04  7.86778358e-02 -7.85671924e-02 
 8.45000000e-09  1.13928386e-04  7.86708706e-02 -7.85569422e-02 
 8.55000000e-09  1.17428568e-04  7.86639771e-02 -7.85465486e-02 
 8.65000000e-09  1.21080968e-04  7.86570962e-02 -7.85360152e-02 
 8.75000000e-09  1.24919796e-04  7.86502655e-02 -7.85253457e-02 
 8.85000000e-09  1.28900862e-04  7.86434445e-02 -7.85145436e-02 
 8.95000000e-09  1.33044898e-04  7.86366574e-02 -7.85036125e-02 
 9.05000000e-09  1.37320987e-04  7.86298766e-02 -7.84925556e-02 
 9.15000000e-09  1.41740664e-04  7.86231169e-02 -7.84813763e-02 
 9.25000000e-09  1.46282479e-04  7.86163603e-02 -7.84700778e-02 
 9.35000000e-09  1.50951692e-04  7.86096150e-02 -7.84586633e-02 
 9.45000000e-09  1.55733594e-04  7.86028694e-02 -7.84471358e-02 
 9.55000000e-09  1.60629271e-04  7.85961277e-02 -7.84354984e-02 
 9.65000000e-09  1.65628769e-04  7.85893828e-02 -7.84237541e-02 
 9.75000000e-09  1.70730343e-04  7.85826359e-02 -7.84119056e-02 
 9.85000000e-09  1.75927580e-04  7.85758833e-02 -7.83999558e-02 
 9.95000000e-09  1.81216862e-04  7.85691243e-02 -7.83879074e-02 
 1.00500000e-08  1.86594267e-04  7.85623574e-02 -7.83757632e-02 
 1.01500000e-08  1.92054964e-04  7.85555806e-02 -7.83635257e-02 
 1.02500000e-08  1.97596873e-04  7.85487944e-02 -7.83511975e-02 
 1.03500000e-08  2.03214425e-04  7.85419955e-02 -7.83387811e-02 
 1.04500000e-08  2.08906892e-04  7.85351859e-02 -7.83262790e-02 
 1.05500000e-08  2.14668252e-04  7.85283618e-02 -7.83136936e-02 
 1.06500000e-08  2.20498767e-04  7.85215259e-02 -7.83010271e-02 
 1.07500000e-08  2.26392172e-04  7.85146741e-02 -7.82882820e-02 
 1.08500000e-08  2.32349491e-04  7.85078098e-02 -7.82754603e-02 
 1.09500000e-08  2.38364343e-04  7.85009287e-02 -7.82625644e-02 
 1.10000000e-08  2.41394934e-04  7.84974841e-02 -7.82560891e-02 
 1.10100000e-08  2.42203434e-04  7.84969950e-02 -7.82547916e-02 
 1.10300000e-08  2.43229586e-04  7.84954247e-02 -7.82521951e-02 
 1.10700000e-08  2.45500015e-04  7.84924937e-02 -7.82469937e-02 
 1.11500000e-08  2.50667769e-04  7.84872253e-02 -7.82365576e-02 
 1.12500000e-08  2.56667683e-04  7.84801191e-02 -7.82234514e-02 
 1.13500000e-08  2.63059265e-04  7.84733385e-02 -7.82102792e-02 
 1.14500000e-08  2.69325771e-04  7.84663687e-02 -7.81970429e-02 
 1.15500000e-08  2.75690781e-04  7.84594353e-02 -7.81837445e-02 
 1.16500000e-08  2.82802470e-04  7.84531883e-02 -7.81703858e-02 
 1.17500000e-08  2.90520726e-04  7.84474895e-02 -7.81569688e-02 
 1.18500000e-08  2.89154481e-04  7.84326495e-02 -7.81434950e-02 
 1.19500000e-08  2.61792767e-04  7.83917570e-02 -7.81299643e-02 
 1.20000000e-08  1.91850457e-04  7.83150269e-02 -7.81231765e-02 
 1.20100000e-08  1.68851029e-04  7.82906676e-02 -7.81218165e-02 
 1.20300000e-08  1.33353487e-04  7.82524487e-02 -7.81190952e-02 
 1.20700000e-08  3.63865287e-04  7.84775104e-02 -7.81136451e-02 
 1.21500000e-08  3.69838411e-03  8.18011963e-02 -7.81028122e-02 
 1.22500000e-08  1.05521932e-02  8.86420326e-02 -7.80898394e-02 
 1.23500000e-08  1.41264919e-02  9.22045445e-02 -7.80780526e-02 
 1.24500000e-08  1.36590586e-02  9.17266505e-02 -7.80675919e-02 
 1.25500000e-08  1.16775308e-02  8.97356843e-02 -7.80581536e-02 
 1.26500000e-08  8.60516729e-03  8.66545934e-02 -7.80494261e-02 
 1.27500000e-08  4.41748587e-03  8.24587859e-02 -7.80413000e-02 
 1.28500000e-08 -7.34677952e-04  7.72991650e-02 -7.80338429e-02 
 1.29500000e-08 -7.03578644e-03  7.09914683e-02 -7.80272547e-02 
 1.30500000e-08 -1.69813491e-02  6.10406121e-02 -7.80219612e-02 
 1.31500000e-08 -2.19790701e-02  5.60393628e-02 -7.80184328e-02 
 1.32500000e-08 -1.90241903e-02  5.89923136e-02 -7.80165039e-02 
 1.33500000e-08 -1.38797774e-02  6.41354977e-02 -7.80152750e-02 
 1.34500000e-08 -9.27479742e-03  6.87389960e-02 -7.80137934e-02 
 1.35500000e-08 -5.74197958e-03  7.22694824e-02 -7.80114620e-02 
 1.36500000e-08 -3.14902284e-03  7.48589723e-02 -7.80079951e-02 
 1.37500000e-08 -1.28989722e-03  7.67133882e-02 -7.80032854e-02 
 1.38500000e-08  2.80069753e-05  7.80253199e-02 -7.79973129e-02 
 1.39500000e-08  9.39176957e-04  7.89292738e-02 -7.79900969e-02 
 1.40500000e-08  1.55822730e-03  7.95399003e-02 -7.79816730e-02 
 1.41500000e-08  1.95721391e-03  7.99292969e-02 -7.79720830e-02 
 1.42500000e-08  2.20329412e-03  8.01646639e-02 -7.79613698e-02 
 1.43500000e-08  2.33309558e-03  8.02826711e-02 -7.79495755e-02 
 1.44500000e-08  2.38708026e-03  8.03238209e-02 -7.79367407e-02 
 1.45500000e-08  2.38199365e-03  8.03048976e-02 -7.79229040e-02 
 1.46500000e-08  2.34325184e-03  8.02513538e-02 -7.79081020e-02 
 1.47500000e-08  2.27645411e-03  8.01688235e-02 -7.78923694e-02 
 1.48500000e-08  2.19855339e-03  8.00742927e-02 -7.78757393e-02 
 1.49500000e-08  2.10895286e-03  7.99671956e-02 -7.78582427e-02 
 1.50500000e-08  2.01987848e-03  7.98597880e-02 -7.78399095e-02 
 1.51500000e-08  1.92734323e-03  7.97481110e-02 -7.78207678e-02 
 1.52500000e-08  1.84096158e-03  7.96418060e-02 -7.78008444e-02 
 1.53500000e-08  1.75493832e-03  7.95351032e-02 -7.77801649e-02 
 1.54500000e-08  1.67746615e-03  7.94362199e-02 -7.77587538e-02 
 1.55500000e-08  1.60182580e-03  7.93384602e-02 -7.77366344e-02 
 1.56500000e-08  1.53545045e-03  7.92492794e-02 -7.77138290e-02 
 1.57500000e-08  1.47118462e-03  7.91615436e-02 -7.76903590e-02 
 1.58500000e-08  1.41606565e-03  7.90823106e-02 -7.76662449e-02 
 1.59500000e-08  1.36276584e-03  7.90042723e-02 -7.76415064e-02 
 1.60000000e-08  1.34071211e-03  7.89696205e-02 -7.76289084e-02 
 1.60100000e-08  1.33496245e-03  7.89613303e-02 -7.76263679e-02 
 1.60300000e-08  1.32605956e-03  7.89473344e-02 -7.76212749e-02 
 1.60700000e-08  1.30892456e-03  7.89199428e-02 -7.76110182e-02 
 1.61500000e-08  1.27576689e-03  7.88659934e-02 -7.75902265e-02 
 1.62500000e-08  1.23896873e-03  7.88026944e-02 -7.75637257e-02 
 1.63500000e-08  1.20600402e-03  7.87426759e-02 -7.75366719e-02 
 1.64500000e-08  1.17693211e-03  7.86860136e-02 -7.75090815e-02 
 1.65500000e-08  1.15066519e-03  7.86316352e-02 -7.74809700e-02 
 1.66500000e-08  1.12876201e-03  7.85811145e-02 -7.74523525e-02 
 1.67500000e-08  1.11007422e-03  7.85333180e-02 -7.74232438e-02 
 1.68500000e-08  1.09429027e-03  7.84879482e-02 -7.73936579e-02 
 1.69500000e-08  1.08113879e-03  7.84447475e-02 -7.73636087e-02 
 1.70000000e-08  1.07536240e-03  7.84237766e-02 -7.73484142e-02 
 1.70100000e-08  1.07448932e-03  7.84198490e-02 -7.73453597e-02 
 1.70300000e-08  1.07221663e-03  7.84114585e-02 -7.73392419e-02 
 1.70700000e-08  1.06811229e-03  7.83950659e-02 -7.73269536e-02 
 1.71500000e-08  1.06152666e-03  7.83636964e-02 -7.73021697e-02 
 1.72500000e-08  1.05472125e-03  7.83255299e-02 -7.72708086e-02 
 1.73500000e-08  1.05007521e-03  7.82891100e-02 -7.72390348e-02 
 1.74500000e-08  1.04694189e-03  7.82538018e-02 -7.72068599e-02 
 1.75500000e-08  1.04559393e-03  7.82198892e-02 -7.71742953e-02 
 1.76500000e-08  1.04558870e-03  7.81869407e-02 -7.71413520e-02 
 1.77500000e-08  1.04707871e-03  7.81551194e-02 -7.71080407e-02 
 1.78500000e-08  1.04974576e-03  7.81241175e-02 -7.70743718e-02 
 1.79500000e-08  1.05367573e-03  7.80940310e-02 -7.70403553e-02 
 1.80500000e-08  1.05863453e-03  7.80646357e-02 -7.70060012e-02 
 1.81500000e-08  1.06466696e-03  7.80359859e-02 -7.69713189e-02 
 1.82500000e-08  1.07159802e-03  7.80079158e-02 -7.69363178e-02 
 1.83500000e-08  1.07944733e-03  7.79804541e-02 -7.69010068e-02 
 1.84500000e-08  1.08808229e-03  7.79534771e-02 -7.68653948e-02 
 1.85500000e-08  1.09750673e-03  7.79269971e-02 -7.68294903e-02 
 1.86500000e-08  1.10761926e-03  7.79009210e-02 -7.67933017e-02 
 1.87500000e-08  1.11841376e-03  7.78752509e-02 -7.67568371e-02 
 1.88500000e-08  1.12981228e-03  7.78499168e-02 -7.67201045e-02 
 1.89500000e-08  1.14180268e-03  7.78249141e-02 -7.66831114e-02 
 1.90500000e-08  1.15432451e-03  7.78001900e-02 -7.66458655e-02 
 1.91500000e-08  1.16736231e-03  7.77757363e-02 -7.66083740e-02 
 1.92500000e-08  1.18086882e-03  7.77515130e-02 -7.65706442e-02 
 1.93500000e-08  1.19482704e-03  7.77275099e-02 -7.65326829e-02 
 1.94500000e-08  1.20919974e-03  7.77036967e-02 -7.64944969e-02 
 1.95500000e-08  1.22396944e-03  7.76800624e-02 -7.64560930e-02 
 1.96500000e-08  1.23910661e-03  7.76565840e-02 -7.64174774e-02 
 1.97500000e-08  1.25459399e-03  7.76332506e-02 -7.63786566e-02 
 1.98500000e-08  1.27040807e-03  7.76100448e-02 -7.63396368e-02 
 1.99500000e-08  1.28653214e-03  7.75869559e-02 -7.63004238e-02 
 2.00500000e-08  1.30294739e-03  7.75639709e-02 -7.62610235e-02 
 2.01500000e-08  1.31963795e-03  7.75410797e-02 -7.62214418e-02 
 2.02500000e-08  1.33658872e-03  7.75182728e-02 -7.61816841e-02 
 2.03500000e-08  1.35378472e-03  7.74955406e-02 -7.61417559e-02 
 2.04500000e-08  1.37121382e-03  7.74728763e-02 -7.61016625e-02 
 2.05500000e-08  1.38886195e-03  7.74502711e-02 -7.60614091e-02 
 2.06500000e-08  1.40671940e-03  7.74277203e-02 -7.60210009e-02 
 2.07500000e-08  1.42477300e-03  7.74052157e-02 -7.59804427e-02 
 2.08500000e-08  1.44301497e-03  7.73827544e-02 -7.59397394e-02 
 2.09500000e-08  1.46143300e-03  7.73603287e-02 -7.58988957e-02 
 2.10000000e-08  1.47070711e-03  7.73491296e-02 -7.58784225e-02 
 2.10100000e-08  1.47274559e-03  7.73470688e-02 -7.58743232e-02 
 2.10300000e-08  1.47630906e-03  7.73424309e-02 -7.58661219e-02 
 2.10700000e-08  1.48362353e-03  7.73333270e-02 -7.58497035e-02 
 2.11500000e-08  1.49885320e-03  7.73156576e-02 -7.58168045e-02 
 2.12500000e-08  1.51760131e-03  7.72931682e-02 -7.57755669e-02 
 2.13500000e-08  1.53677731e-03  7.72709842e-02 -7.57342069e-02 
 2.14500000e-08  1.55594869e-03  7.72486772e-02 -7.56927285e-02 
 2.15500000e-08  1.57538635e-03  7.72265222e-02 -7.56511359e-02 
 2.16500000e-08  1.59599786e-03  7.72054309e-02 -7.56094331e-02 
 2.17500000e-08  1.61602249e-03  7.71836467e-02 -7.55676242e-02 
 2.18500000e-08  1.62795039e-03  7.71536631e-02 -7.55257127e-02 
 2.19500000e-08  1.61701277e-03  7.71007134e-02 -7.54837007e-02 
 2.20000000e-08  1.55945561e-03  7.70221121e-02 -7.54626565e-02 
 2.20100000e-08  1.53971668e-03  7.69981606e-02 -7.54584439e-02 
 2.20300000e-08  1.50064510e-03  7.69506615e-02 -7.54500164e-02 
 2.20700000e-08  1.56413973e-03  7.69972878e-02 -7.54331480e-02 
 2.21500000e-08  3.68450555e-03  7.90839227e-02 -7.53994172e-02 
 2.22500000e-08  9.54904549e-03  8.49066533e-02 -7.53576078e-02 
 2.23500000e-08  1.45610020e-02  8.98777518e-02 -7.53167498e-02 
 2.24500000e-08  1.58907008e-02  9.11678838e-02 -7.52771830e-02 
 2.25500000e-08  1.47932988e-02  9.00320708e-02 -7.52387720e-02 
 2.26500000e-08  1.27682328e-02  8.79693891e-02 -7.52011563e-02 
 2.27500000e-08  1.00810495e-02  8.52450971e-02 -7.51640476e-02 
 2.28500000e-08  6.69066503e-03  8.18179949e-02 -7.51273299e-02 
 2.29500000e-08  2.59846936e-03  7.76895033e-02 -7.50910339e-02 
 2.30500000e-08 -2.09565935e-03  7.29596302e-02 -7.50552895e-02 
 2.31500000e-08 -7.57379940e-03  6.74465022e-02 -7.50203016e-02 
 2.32500000e-08 -1.64814009e-02  5.85050579e-02 -7.49864587e-02 
 2.33500000e-08 -2.36421672e-02  5.13121341e-02 -7.49543013e-02 
 2.34500000e-08 -2.26291636e-02  5.22947701e-02 -7.49239337e-02 
 2.35500000e-08 -1.74054577e-02  5.74891938e-02 -7.48946515e-02 
 2.36500000e-08 -1.16797909e-02  6.31856370e-02 -7.48654279e-02 
 2.37500000e-08 -6.87460081e-03  6.79608689e-02 -7.48354697e-02 
 2.38500000e-08 -3.20617099e-03  7.15981566e-02 -7.48043276e-02 
 2.39500000e-08 -5.20328077e-04  7.42514719e-02 -7.47717999e-02 
 2.40500000e-08  1.39729359e-03  7.61351171e-02 -7.47378236e-02 
 2.41500000e-08  2.73729767e-03  7.74397015e-02 -7.47024039e-02 
 2.42500000e-08  3.64934325e-03  7.83149203e-02 -7.46655770e-02 
 2.43500000e-08  4.24835512e-03  7.88757466e-02 -7.46273914e-02 
 2.44500000e-08  4.61968817e-03  7.92075873e-02 -7.45878991e-02 
 2.45500000e-08  4.82797470e-03  7.93751267e-02 -7.45471520e-02 
 2.46500000e-08  4.92029639e-03  7.94254964e-02 -7.45052000e-02 
 2.47500000e-08  4.93241060e-03  7.93945017e-02 -7.44620911e-02 
 2.48500000e-08  4.88971565e-03  7.93075859e-02 -7.44178703e-02 
 2.49500000e-08  4.81170213e-03  7.91842826e-02 -7.43725805e-02 
 2.50500000e-08  4.71161199e-03  7.90378742e-02 -7.43262622e-02 
 2.51500000e-08  4.59985276e-03  7.88788065e-02 -7.42789537e-02 
 2.52500000e-08  4.48292155e-03  7.87136130e-02 -7.42306915e-02 
 2.53500000e-08  4.36621565e-03  7.85477255e-02 -7.41815099e-02 
 2.54500000e-08  4.25254827e-03  7.83839901e-02 -7.41314418e-02 
 2.55500000e-08  4.14460272e-03  7.82251212e-02 -7.40805184e-02 
 2.56500000e-08  4.04322763e-03  7.80719971e-02 -7.40287695e-02 
 2.57500000e-08  3.94967687e-03  7.79259003e-02 -7.39762234e-02 
 2.58500000e-08  3.86379029e-03  7.77866974e-02 -7.39229072e-02 
 2.59500000e-08  3.78610181e-03  7.76549486e-02 -7.38688468e-02 
 2.60000000e-08  3.75002385e-03  7.75915684e-02 -7.38415445e-02 
 2.60100000e-08  3.74292506e-03  7.75789843e-02 -7.38360592e-02 
 2.60300000e-08  3.72939437e-03  7.75544689e-02 -7.38250745e-02 
 2.60700000e-08  3.70327534e-03  7.75062968e-02 -7.38030214e-02 
 2.61500000e-08  3.65369427e-03  7.74122801e-02 -7.37585859e-02 
 2.62500000e-08  3.59856975e-03  7.73010077e-02 -7.37024380e-02 
 2.63500000e-08  3.54989040e-03  7.71955296e-02 -7.36456392e-02 
 2.64500000e-08  3.50730355e-03  7.70955142e-02 -7.35882106e-02 
 2.65500000e-08  3.46996953e-03  7.70001419e-02 -7.35301724e-02 
