 time            v(Vout+)        v(vout-)        v(vout+)-v(vout-)
 0.00000000e+00  3.55021860e-07  1.70064393e-01 -1.70064038e-01 
 1.00000000e-12  3.55066000e-07  1.70064393e-01 -1.70064038e-01 
 2.00000000e-12  3.55093269e-07  1.70064393e-01 -1.70064038e-01 
 4.00000000e-12  3.55130566e-07  1.70064393e-01 -1.70064038e-01 
 8.00000000e-12  3.55140065e-07  1.70064393e-01 -1.70064038e-01 
 1.60000000e-11  3.55079565e-07  1.70064393e-01 -1.70064038e-01 
 3.20000000e-11  3.54985289e-07  1.70064393e-01 -1.70064038e-01 
 6.40000000e-11  3.54966841e-07  1.70064393e-01 -1.70064038e-01 
 1.28000000e-10  3.54984227e-07  1.70064393e-01 -1.70064038e-01 
 2.28000000e-10  3.54974576e-07  1.70064393e-01 -1.70064038e-01 
 3.28000000e-10  3.54973604e-07  1.70064393e-01 -1.70064038e-01 
 4.28000000e-10  3.54964788e-07  1.70064393e-01 -1.70064038e-01 
 5.28000000e-10  3.54956571e-07  1.70064393e-01 -1.70064038e-01 
 6.28000000e-10  3.54944831e-07  1.70064392e-01 -1.70064038e-01 
 7.28000000e-10  3.54931958e-07  1.70064392e-01 -1.70064038e-01 
 8.28000000e-10  3.54919875e-07  1.70064392e-01 -1.70064038e-01 
 9.28000000e-10  3.54908479e-07  1.70064392e-01 -1.70064038e-01 
 1.00000000e-09  3.54903803e-07  1.70064392e-01 -1.70064038e-01 
 1.01000000e-09  5.78719160e-07  1.70064616e-01 -1.70064038e-01 
 1.03000000e-09  3.49931596e-07  1.70064387e-01 -1.70064038e-01 
 1.07000000e-09  1.62001249e-07  1.70064200e-01 -1.70064038e-01 
 1.15000000e-09  4.79471993e-07  1.70064517e-01 -1.70064038e-01 
 1.25000000e-09  2.68464677e-07  1.70064306e-01 -1.70064038e-01 
 1.35000000e-09  4.57995437e-07  1.70064496e-01 -1.70064038e-01 
 1.45000000e-09  5.83901919e-07  1.70064621e-01 -1.70064038e-01 
 1.55000000e-09 -3.41210295e-07  1.70063696e-01 -1.70064038e-01 
 1.65000000e-09  2.05349367e-06  1.70066091e-01 -1.70064038e-01 
 1.75000000e-09  6.93029805e-08  1.70064107e-01 -1.70064038e-01 
 1.85000000e-09 -6.31258547e-06  1.70057725e-01 -1.70064038e-01 
 1.95000000e-09 -3.36642294e-05  1.70030371e-01 -1.70064036e-01 
 2.00000000e-09 -9.25422437e-05  1.69971490e-01 -1.70064033e-01 
 2.01000000e-09 -9.67609372e-05  1.69967271e-01 -1.70064032e-01 
 2.03000000e-09 -4.91137262e-05  1.70014916e-01 -1.70064030e-01 
 2.07000000e-09  6.84260507e-04  1.70748290e-01 -1.70064030e-01 
 2.15000000e-09  5.28848985e-03  1.75352685e-01 -1.70064195e-01 
 2.25000000e-09  9.74480815e-03  1.79809920e-01 -1.70065112e-01 
 2.35000000e-09  8.23756463e-03  1.78304629e-01 -1.70067064e-01 
 2.45000000e-09  3.82180512e-03  1.73891750e-01 -1.70069945e-01 
 2.55000000e-09 -4.82579846e-03  1.65247992e-01 -1.70073790e-01 
 2.65000000e-09 -1.34064857e-02  1.56672501e-01 -1.70078987e-01 
 2.75000000e-09 -1.02616170e-02  1.59823892e-01 -1.70085509e-01 
 2.85000000e-09 -6.26516999e-03  1.63827303e-01 -1.70092473e-01 
 2.95000000e-09 -3.71386546e-03  1.66385084e-01 -1.70098949e-01 
 3.05000000e-09 -1.97967569e-03  1.68124821e-01 -1.70104497e-01 
 3.15000000e-09 -8.40969114e-04  1.69267998e-01 -1.70108967e-01 
 3.25000000e-09 -8.58628109e-05  1.70026466e-01 -1.70112329e-01 
 3.35000000e-09  3.83398341e-04  1.70498000e-01 -1.70114601e-01 
 3.45000000e-09  6.78387441e-04  1.70794211e-01 -1.70115824e-01 
 3.55000000e-09  8.32532845e-04  1.70948572e-01 -1.70116039e-01 
 3.65000000e-09  9.13215378e-04  1.71028504e-01 -1.70115289e-01 
 3.75000000e-09  9.23846336e-04  1.71037461e-01 -1.70113615e-01 
 3.85000000e-09  9.10441328e-04  1.71021495e-01 -1.70111053e-01 
 3.95000000e-09  8.61750624e-04  1.70969389e-01 -1.70107638e-01 
 4.05000000e-09  8.12988579e-04  1.70916389e-01 -1.70103401e-01 
 4.15000000e-09  7.45620289e-04  1.70843989e-01 -1.70098369e-01 
 4.25000000e-09  6.89290789e-04  1.70781861e-01 -1.70092570e-01 
 4.35000000e-09  6.21896340e-04  1.70707925e-01 -1.70086029e-01 
 4.45000000e-09  5.70190780e-04  1.70648959e-01 -1.70078768e-01 
 4.55000000e-09  5.10413436e-04  1.70581222e-01 -1.70070809e-01 
 4.65000000e-09  4.67809481e-04  1.70529982e-01 -1.70062172e-01 
 4.75000000e-09  4.17944878e-04  1.70470822e-01 -1.70052877e-01 
 4.85000000e-09  3.85270779e-04  1.70428214e-01 -1.70042943e-01 
 4.95000000e-09  3.45174714e-04  1.70377561e-01 -1.70032386e-01 
 5.05000000e-09  3.21677108e-04  1.70342902e-01 -1.70021225e-01 
 5.15000000e-09  2.90228688e-04  1.70299702e-01 -1.70009473e-01 
 5.25000000e-09  2.74595895e-04  1.70271744e-01 -1.69997149e-01 
 5.35000000e-09  2.50407912e-04  1.70234673e-01 -1.69984265e-01 
 5.45000000e-09  2.41251233e-04  1.70212088e-01 -1.69970837e-01 
 5.55000000e-09  2.22985429e-04  1.70179864e-01 -1.69956879e-01 
 5.65000000e-09  2.19047201e-04  1.70161450e-01 -1.69942403e-01 
 5.75000000e-09  2.05538983e-04  1.70132963e-01 -1.69927424e-01 
 5.85000000e-09  2.05758988e-04  1.70117712e-01 -1.69911953e-01 
 5.95000000e-09  1.96048130e-04  1.70092052e-01 -1.69896004e-01 
 6.00000000e-09  2.00523324e-04  1.70088376e-01 -1.69887853e-01 
 6.01000000e-09  1.97103806e-04  1.70083310e-01 -1.69886206e-01 
 6.03000000e-09  1.96879044e-04  1.70079783e-01 -1.69882904e-01 
 6.07000000e-09  1.96785579e-04  1.70073031e-01 -1.69876246e-01 
 6.15000000e-09  1.95748529e-04  1.70058460e-01 -1.69862712e-01 
 6.25000000e-09  1.96422223e-04  1.70041818e-01 -1.69845396e-01 
 6.35000000e-09  1.97699866e-04  1.70025347e-01 -1.69827647e-01 
 6.45000000e-09  2.00264193e-04  1.70009740e-01 -1.69809476e-01 
 6.55000000e-09  2.03110073e-04  1.69994003e-01 -1.69790893e-01 
 6.65000000e-09  2.07436540e-04  1.69979344e-01 -1.69771908e-01 
 6.75000000e-09  2.12359352e-04  1.69964890e-01 -1.69752531e-01 
 6.85000000e-09  2.18251717e-04  1.69951024e-01 -1.69732773e-01 
 6.95000000e-09  2.24610417e-04  1.69937252e-01 -1.69712642e-01 
 7.00000000e-09  2.27949390e-04  1.69930389e-01 -1.69702439e-01 
 7.01000000e-09  2.28834447e-04  1.69929221e-01 -1.69700386e-01 
 7.03000000e-09  2.30004314e-04  1.69926277e-01 -1.69696273e-01 
 7.07000000e-09  2.32643202e-04  1.69920647e-01 -1.69688004e-01 
 7.15000000e-09  2.38809192e-04  1.69910106e-01 -1.69671297e-01 
 7.25000000e-09  2.46409519e-04  1.69896513e-01 -1.69650104e-01 
 7.35000000e-09  2.54754939e-04  1.69883329e-01 -1.69628574e-01 
 7.45000000e-09  2.63219601e-04  1.69869935e-01 -1.69606716e-01 
 7.55000000e-09  2.72257414e-04  1.69856795e-01 -1.69584538e-01 
 7.65000000e-09  2.81458008e-04  1.69843506e-01 -1.69562048e-01 
 7.75000000e-09  2.91113716e-04  1.69830368e-01 -1.69539254e-01 
 7.85000000e-09  3.00947099e-04  1.69817111e-01 -1.69516164e-01 
 7.95000000e-09  3.11152342e-04  1.69803937e-01 -1.69492785e-01 
 8.05000000e-09  3.21537269e-04  1.69790662e-01 -1.69469125e-01 
 8.15000000e-09  3.32233250e-04  1.69777424e-01 -1.69445191e-01 
 8.25000000e-09  3.43105168e-04  1.69764095e-01 -1.69420990e-01 
 8.35000000e-09  3.54241683e-04  1.69750770e-01 -1.69396529e-01 
 8.45000000e-09  3.65547558e-04  1.69737361e-01 -1.69371814e-01 
 8.55000000e-09  3.77081952e-04  1.69723934e-01 -1.69346852e-01 
 8.65000000e-09  3.88777664e-04  1.69710428e-01 -1.69321651e-01 
 8.75000000e-09  4.00673442e-04  1.69696889e-01 -1.69296215e-01 
 8.85000000e-09  4.12721854e-04  1.69683274e-01 -1.69270552e-01 
 8.95000000e-09  4.24947491e-04  1.69669614e-01 -1.69244666e-01 
 9.05000000e-09  4.37316919e-04  1.69655882e-01 -1.69218565e-01 
 9.15000000e-09  4.49844845e-04  1.69642099e-01 -1.69192254e-01 
 9.25000000e-09  4.62507938e-04  1.69628247e-01 -1.69165739e-01 
 9.35000000e-09  4.75313929e-04  1.69614339e-01 -1.69139025e-01 
 9.45000000e-09  4.88246677e-04  1.69600364e-01 -1.69112117e-01 
 9.55000000e-09  5.01309169e-04  1.69586331e-01 -1.69085021e-01 
 9.65000000e-09  5.14490402e-04  1.69572233e-01 -1.69057743e-01 
 9.75000000e-09  5.27790077e-04  1.69558076e-01 -1.69030286e-01 
 9.85000000e-09  5.41200901e-04  1.69543858e-01 -1.69002657e-01 
 9.95000000e-09  5.54720307e-04  1.69529580e-01 -1.68974860e-01 
 1.00500000e-08  5.68343705e-04  1.69515243e-01 -1.68946899e-01 
 1.01500000e-08  5.82066974e-04  1.69500847e-01 -1.68918780e-01 
 1.02500000e-08  5.95887484e-04  1.69486394e-01 -1.68890506e-01 
 1.03500000e-08  6.09800069e-04  1.69471884e-01 -1.68862084e-01 
 1.04500000e-08  6.23803545e-04  1.69457319e-01 -1.68833515e-01 
 1.05500000e-08  6.37892101e-04  1.69442698e-01 -1.68804806e-01 
 1.06500000e-08  6.52065621e-04  1.69428026e-01 -1.68775960e-01 
 1.07500000e-08  6.66317808e-04  1.69413299e-01 -1.68746981e-01 
 1.08500000e-08  6.80649369e-04  1.69398523e-01 -1.68717874e-01 
 1.09500000e-08  6.95053757e-04  1.69383695e-01 -1.68688641e-01 
 1.10000000e-08  7.02284783e-04  1.69376264e-01 -1.68673979e-01 
 1.10100000e-08  7.03933049e-04  1.69374976e-01 -1.68671043e-01 
 1.10300000e-08  7.06634642e-04  1.69371802e-01 -1.68665167e-01 
 1.10700000e-08  7.12271621e-04  1.69365673e-01 -1.68653402e-01 
 1.11500000e-08  7.24183776e-04  1.69354000e-01 -1.68629816e-01 
 1.12500000e-08  7.38614851e-04  1.69338846e-01 -1.68600231e-01 
 1.13500000e-08  7.53457750e-04  1.69323994e-01 -1.68570536e-01 
 1.14500000e-08  7.68173519e-04  1.69308909e-01 -1.68540735e-01 
 1.15500000e-08  7.82952923e-04  1.69293783e-01 -1.68510831e-01 
 1.16500000e-08  7.98699609e-04  1.69279526e-01 -1.68480826e-01 
 1.17500000e-08  8.14279063e-04  1.69265004e-01 -1.68450725e-01 
 1.18500000e-08  8.20744556e-04  1.69241275e-01 -1.68420531e-01 
 1.19500000e-08  7.93592015e-04  1.69183836e-01 -1.68390244e-01 
 1.20000000e-08  7.20005512e-04  1.69095070e-01 -1.68375064e-01 
 1.20100000e-08  7.04169835e-04  1.69076195e-01 -1.68372025e-01 
 1.20300000e-08  7.13130136e-04  1.69079074e-01 -1.68365944e-01 
 1.20700000e-08  1.27384509e-03  1.69627618e-01 -1.68353773e-01 
 1.21500000e-08  5.52947624e-03  1.73859007e-01 -1.68329531e-01 
 1.22500000e-08  1.19769577e-02  1.80276840e-01 -1.68299882e-01 
 1.23500000e-08  1.42862690e-02  1.82557697e-01 -1.68271428e-01 
 1.24500000e-08  1.28420013e-02  1.81086152e-01 -1.68244151e-01 
 1.25500000e-08  9.84707691e-03  1.78064707e-01 -1.68217630e-01 
 1.26500000e-08  5.96126879e-03  1.74152743e-01 -1.68191474e-01 
 1.27500000e-08  1.19622635e-03  1.69361742e-01 -1.68165515e-01 
 1.28500000e-08 -4.38405365e-03  1.63755733e-01 -1.68139786e-01 
 1.29500000e-08 -1.13658648e-02  1.56748621e-01 -1.68114485e-01 
 1.30500000e-08 -2.35140212e-02  1.44576113e-01 -1.68090134e-01 
 1.31500000e-08 -3.03219020e-02  1.37745493e-01 -1.68067395e-01 
 1.32500000e-08 -2.55629498e-02  1.42483181e-01 -1.68046130e-01 
 1.33500000e-08 -1.59598296e-02  1.52065240e-01 -1.68025070e-01 
 1.34500000e-08 -7.36244793e-03  1.60640257e-01 -1.68002705e-01 
 1.35500000e-08 -1.35589051e-03  1.66622176e-01 -1.67978066e-01 
 1.36500000e-08  2.40945056e-03  1.70360231e-01 -1.67950781e-01 
 1.37500000e-08  4.59923872e-03  1.72520069e-01 -1.67920830e-01 
 1.38500000e-08  5.76960426e-03  1.73657952e-01 -1.67888348e-01 
 1.39500000e-08  6.28692894e-03  1.74140438e-01 -1.67853509e-01 
 1.40500000e-08  6.40575479e-03  1.74222239e-01 -1.67816484e-01 
 1.41500000e-08  6.27702139e-03  1.74054445e-01 -1.67777424e-01 
 1.42500000e-08  6.01305138e-03  1.73749511e-01 -1.67736460e-01 
 1.43500000e-08  5.67251433e-03  1.73366218e-01 -1.67693704e-01 
 1.44500000e-08  5.30714235e-03  1.72956394e-01 -1.67649252e-01 
 1.45500000e-08  4.93571468e-03  1.72538904e-01 -1.67603189e-01 
 1.46500000e-08  4.58325715e-03  1.72138846e-01 -1.67555589e-01 
 1.47500000e-08  4.25090249e-03  1.71757421e-01 -1.67506519e-01 
 1.48500000e-08  3.95182840e-03  1.71407866e-01 -1.67456038e-01 
 1.49500000e-08  3.67953016e-03  1.71083730e-01 -1.67404200e-01 
 1.50500000e-08  3.44213332e-03  1.70793189e-01 -1.67351056e-01 
 1.51500000e-08  3.23010753e-03  1.70526758e-01 -1.67296651e-01 
 1.52500000e-08  3.04966977e-03  1.70290698e-01 -1.67241028e-01 
 1.53500000e-08  2.89036762e-03  1.70074595e-01 -1.67184228e-01 
 1.54500000e-08  2.75791502e-03  1.69884202e-01 -1.67126287e-01 
 1.55500000e-08  2.64185086e-03  1.69709093e-01 -1.67067242e-01 
 1.56500000e-08  2.54797120e-03  1.69555097e-01 -1.67007125e-01 
 1.57500000e-08  2.46615839e-03  1.69412128e-01 -1.66945969e-01 
 1.58500000e-08  2.40249278e-03  1.69286297e-01 -1.66883805e-01 
 1.59500000e-08  2.34729581e-03  1.69167956e-01 -1.66820660e-01 
 1.60000000e-08  2.32688045e-03  1.69115608e-01 -1.66788728e-01 
 1.60100000e-08  2.32150099e-03  1.69103810e-01 -1.66782309e-01 
 1.60300000e-08  2.31364309e-03  1.69083094e-01 -1.66769451e-01 
 1.60700000e-08  2.29916461e-03  1.69042790e-01 -1.66743625e-01 
 1.61500000e-08  2.27338003e-03  1.68964914e-01 -1.66691534e-01 
 1.62500000e-08  2.24922078e-03  1.68874833e-01 -1.66625612e-01 
 1.63500000e-08  2.23199866e-03  1.68790815e-01 -1.66558816e-01 
 1.64500000e-08  2.22131788e-03  1.68712488e-01 -1.66491170e-01 
 1.65500000e-08  2.21573578e-03  1.68638431e-01 -1.66422695e-01 
 1.66500000e-08  2.21553480e-03  1.68568951e-01 -1.66353416e-01 
 1.67500000e-08  2.21969769e-03  1.68503051e-01 -1.66283353e-01 
 1.68500000e-08  2.22787715e-03  1.68440405e-01 -1.66212528e-01 
 1.69500000e-08  2.23940145e-03  1.68380363e-01 -1.66140962e-01 
 1.70000000e-08  2.24620867e-03  1.68351115e-01 -1.66104906e-01 
 1.70100000e-08  2.24786656e-03  1.68345536e-01 -1.66097670e-01 
 1.70300000e-08  2.25066945e-03  1.68333853e-01 -1.66083183e-01 
 1.70700000e-08  2.25678413e-03  1.68310910e-01 -1.66054126e-01 
 1.71500000e-08  2.27080317e-03  1.68266481e-01 -1.65995678e-01 
 1.72500000e-08  2.28998501e-03  1.68211990e-01 -1.65922005e-01 
 1.73500000e-08  2.31152262e-03  1.68159190e-01 -1.65847667e-01 
 1.74500000e-08  2.33468813e-03  1.68107371e-01 -1.65772683e-01 
 1.75500000e-08  2.35970131e-03  1.68056770e-01 -1.65697069e-01 
 1.76500000e-08  2.38606769e-03  1.68006910e-01 -1.65620843e-01 
 1.77500000e-08  2.41391022e-03  1.67957931e-01 -1.65544021e-01 
 1.78500000e-08  2.44288180e-03  1.67909502e-01 -1.65466621e-01 
 1.79500000e-08  2.47305314e-03  1.67861710e-01 -1.65388657e-01 
 1.80500000e-08  2.50417550e-03  1.67814321e-01 -1.65310145e-01 
 1.81500000e-08  2.53628872e-03  1.67767390e-01 -1.65231101e-01 
 1.82500000e-08  2.56921168e-03  1.67720751e-01 -1.65151539e-01 
 1.83500000e-08  2.60296444e-03  1.67674439e-01 -1.65071474e-01 
 1.84500000e-08  2.63741396e-03  1.67628334e-01 -1.64990920e-01 
 1.85500000e-08  2.67256746e-03  1.67582459e-01 -1.64909891e-01 
 1.86500000e-08  2.70832639e-03  1.67536727e-01 -1.64828401e-01 
 1.87500000e-08  2.74468975e-03  1.67491151e-01 -1.64746461e-01 
 1.88500000e-08  2.78158378e-03  1.67445671e-01 -1.64664087e-01 
 1.89500000e-08  2.81900221e-03  1.67400292e-01 -1.64581290e-01 
 1.90500000e-08  2.85688942e-03  1.67354971e-01 -1.64498082e-01 
 1.91500000e-08  2.89523583e-03  1.67309712e-01 -1.64414476e-01 
 1.92500000e-08  2.93399912e-03  1.67264482e-01 -1.64330483e-01 
 1.93500000e-08  2.97316783e-03  1.67219284e-01 -1.64246116e-01 
 1.94500000e-08  3.01270937e-03  1.67174094e-01 -1.64161385e-01 
 1.95500000e-08  3.05261128e-03  1.67128912e-01 -1.64076301e-01 
 1.96500000e-08  3.09284822e-03  1.67083724e-01 -1.63990876e-01 
 1.97500000e-08  3.13340730e-03  1.67038527e-01 -1.63905120e-01 
 1.98500000e-08  3.17426860e-03  1.66993311e-01 -1.63819043e-01 
 1.99500000e-08  3.21541924e-03  1.66948074e-01 -1.63732655e-01 
 2.00500000e-08  3.25684337e-03  1.66902810e-01 -1.63645967e-01 
 2.01500000e-08  3.29852832e-03  1.66857516e-01 -1.63558988e-01 
 2.02500000e-08  3.34046138e-03  1.66812189e-01 -1.63471727e-01 
 2.03500000e-08  3.38263021e-03  1.66766825e-01 -1.63384194e-01 
 2.04500000e-08  3.42502457e-03  1.66721423e-01 -1.63296398e-01 
 2.05500000e-08  3.46763259e-03  1.66675981e-01 -1.63208348e-01 
 2.06500000e-08  3.51044587e-03  1.66630498e-01 -1.63120052e-01 
 2.07500000e-08  3.55345300e-03  1.66584972e-01 -1.63031519e-01 
 2.08500000e-08  3.59664715e-03  1.66539405e-01 -1.62942758e-01 
 2.09500000e-08  3.64001734e-03  1.66493793e-01 -1.62853775e-01 
 2.10000000e-08  3.66176759e-03  1.66470971e-01 -1.62809204e-01 
 2.10100000e-08  3.66630068e-03  1.66466583e-01 -1.62800282e-01 
 2.10300000e-08  3.67484885e-03  1.66457283e-01 -1.62782434e-01 
 2.10700000e-08  3.69214690e-03  1.66438862e-01 -1.62746715e-01 
 2.11500000e-08  3.72734730e-03  1.66402526e-01 -1.62675178e-01 
 2.12500000e-08  3.77104871e-03  1.66356630e-01 -1.62585581e-01 
 2.13500000e-08  3.81518953e-03  1.66310983e-01 -1.62495794e-01 
 2.14500000e-08  3.85933645e-03  1.66265160e-01 -1.62405824e-01 
 2.15500000e-08  3.90361662e-03  1.66219295e-01 -1.62315679e-01 
 2.16500000e-08  3.94959501e-03  1.66174960e-01 -1.62225365e-01 
 2.17500000e-08  3.99318302e-03  1.66128072e-01 -1.62134889e-01 
 2.18500000e-08  4.02698417e-03  1.66071242e-01 -1.62044258e-01 
 2.19500000e-08  4.01422326e-03  1.65967698e-01 -1.61953475e-01 
 2.20000000e-08  3.96419656e-03  1.65872223e-01 -1.61908026e-01 
 2.20100000e-08  3.98077493e-03  1.65879706e-01 -1.61898931e-01 
 2.20300000e-08  4.11761824e-03  1.65998356e-01 -1.61880738e-01 
 2.20700000e-08  5.36447078e-03  1.67208815e-01 -1.61844344e-01 
 2.21500000e-08  1.10153844e-02  1.72787103e-01 -1.61771718e-01 
 2.22500000e-08  1.75908156e-02  1.79272594e-01 -1.61681778e-01 
 2.23500000e-08  1.93523971e-02  1.80945599e-01 -1.61593202e-01 
 2.24500000e-08  1.74243091e-02  1.78930170e-01 -1.61505861e-01 
 2.25500000e-08  1.39755551e-02  1.75394809e-01 -1.61419254e-01 
 2.26500000e-08  9.71431989e-03  1.71047267e-01 -1.61332948e-01 
 2.27500000e-08  4.70479136e-03  1.65951534e-01 -1.61246743e-01 
 2.28500000e-08 -9.66509586e-04  1.60194133e-01 -1.61160643e-01 
 2.29500000e-08 -7.32847131e-03  1.53746316e-01 -1.61074788e-01 
 2.30500000e-08 -1.73993436e-02  1.43590203e-01 -1.60989547e-01 
 2.31500000e-08 -2.92521143e-02  1.31653513e-01 -1.60905628e-01 
 2.32500000e-08 -3.09654059e-02  1.29858071e-01 -1.60823477e-01 
 2.33500000e-08 -2.26723164e-02  1.38070077e-01 -1.60742393e-01 
 2.34500000e-08 -1.15377423e-02  1.49123029e-01 -1.60660771e-01 
 2.35500000e-08 -2.19832832e-03  1.58378778e-01 -1.60577107e-01 
 2.36500000e-08  4.23094270e-03  1.64721482e-01 -1.60490539e-01 
 2.37500000e-08  8.20395642e-03  1.68604747e-01 -1.60400790e-01 
 2.38500000e-08  1.04412364e-02  1.70749152e-01 -1.60307916e-01 
 2.39500000e-08  1.15529130e-02  1.71765020e-01 -1.60212107e-01 
 2.40500000e-08  1.19532968e-02  1.72066882e-01 -1.60113585e-01 
 2.41500000e-08  1.19293149e-02  1.71941873e-01 -1.60012558e-01 
 2.42500000e-08  1.16537453e-02  1.71562954e-01 -1.59909208e-01 
 2.43500000e-08  1.12498873e-02  1.71053579e-01 -1.59803691e-01 
 2.44500000e-08  1.07834077e-02  1.70479546e-01 -1.59696139e-01 
 2.45500000e-08  1.03076740e-02  1.69894337e-01 -1.59586663e-01 
 2.46500000e-08  9.84284166e-03  1.69318206e-01 -1.59475364e-01 
 2.47500000e-08  9.41239883e-03  1.68774726e-01 -1.59362327e-01 
 2.48500000e-08  9.01712549e-03  1.68264755e-01 -1.59247629e-01 
 2.49500000e-08  8.66785874e-03  1.67799199e-01 -1.59131341e-01 
 2.50500000e-08  8.35741942e-03  1.67370944e-01 -1.59013524e-01 
 2.51500000e-08  8.09162121e-03  1.66985860e-01 -1.58894239e-01 
 2.52500000e-08  7.86040879e-03  1.66633946e-01 -1.58773537e-01 
 2.53500000e-08  7.66795137e-03  1.66319420e-01 -1.58651469e-01 
 2.54500000e-08  7.50353247e-03  1.66031615e-01 -1.58528082e-01 
 2.55500000e-08  7.37111424e-03  1.65774534e-01 -1.58403420e-01 
 2.56500000e-08  7.26022053e-03  1.65537745e-01 -1.58277525e-01 
 2.57500000e-08  7.17515395e-03  1.65325589e-01 -1.58150435e-01 
 2.58500000e-08  7.10598325e-03  1.65128173e-01 -1.58022190e-01 
 2.59500000e-08  7.05750123e-03  1.64950324e-01 -1.57892823e-01 
 2.60000000e-08  7.03635779e-03  1.64864087e-01 -1.57827730e-01 
 2.60100000e-08  7.03362956e-03  1.64848303e-01 -1.57814673e-01 
 2.60300000e-08  7.02731995e-03  1.64815859e-01 -1.57788539e-01 
 2.60700000e-08  7.01625869e-03  1.64752404e-01 -1.57736145e-01 
 2.61500000e-08  6.99919848e-03  1.64630055e-01 -1.57630856e-01 
 2.62500000e-08  6.98842050e-03  1.64486750e-01 -1.57498329e-01 
 2.63500000e-08  6.98730450e-03  1.64352116e-01 -1.57364811e-01 
 2.64500000e-08  6.99488439e-03  1.64225216e-01 -1.57230332e-01 
 2.65500000e-08  7.00957617e-03  1.64104495e-01 -1.57094919e-01 
