 time            v(Vout+)        v(Vout-)        v(Vout+)-v(Vout-)
 0.00000000e+00  1.34523798e-10  3.62260706e-05 -3.62259361e-05 
 1.00000000e-12  1.42894909e-10  3.62260790e-05 -3.62259361e-05 
 2.00000000e-12  1.40936210e-10  3.62260770e-05 -3.62259361e-05 
 4.00000000e-12  1.37241544e-10  3.62260733e-05 -3.62259361e-05 
 8.00000000e-12  1.33603792e-10  3.62260697e-05 -3.62259361e-05 
 1.60000000e-11  1.32652220e-10  3.62260687e-05 -3.62259361e-05 
 3.20000000e-11  1.34044293e-10  3.62260701e-05 -3.62259361e-05 
 6.40000000e-11  1.34772487e-10  3.62260708e-05 -3.62259361e-05 
 1.28000000e-10  1.34479664e-10  3.62260705e-05 -3.62259361e-05 
 2.28000000e-10  1.34615748e-10  3.62260707e-05 -3.62259361e-05 
 3.28000000e-10  1.34461977e-10  3.62260705e-05 -3.62259361e-05 
 4.28000000e-10  1.34584960e-10  3.62260706e-05 -3.62259361e-05 
 5.28000000e-10  1.34443275e-10  3.62260705e-05 -3.62259361e-05 
 6.28000000e-10  1.34555993e-10  3.62260706e-05 -3.62259361e-05 
 7.28000000e-10  1.34441927e-10  3.62260705e-05 -3.62259361e-05 
 8.28000000e-10  1.34544593e-10  3.62260706e-05 -3.62259361e-05 
 9.28000000e-10  1.34431613e-10  3.62260705e-05 -3.62259361e-05 
 1.00000000e-09  1.34546543e-10  3.62260706e-05 -3.62259361e-05 
 1.01000000e-09  4.31101102e-09  3.62302512e-05 -3.62259402e-05 
 1.03000000e-09 -7.71641832e-09  3.62182201e-05 -3.62259365e-05 
 1.07000000e-09  5.98808059e-09  3.62319207e-05 -3.62259326e-05 
 1.15000000e-09 -4.30296874e-09  3.62216352e-05 -3.62259382e-05 
 1.25000000e-09  3.81341883e-09  3.62297479e-05 -3.62259345e-05 
 1.35000000e-09 -2.82934055e-09  3.62231086e-05 -3.62259380e-05 
 1.45000000e-09  3.78481735e-09  3.62297262e-05 -3.62259414e-05 
 1.55000000e-09 -6.59934763e-09  3.62193267e-05 -3.62259261e-05 
 1.65000000e-09  1.55618139e-08  3.62415311e-05 -3.62259692e-05 
 1.75000000e-09 -2.02855565e-08  3.62056588e-05 -3.62259444e-05 
 1.85000000e-09 -1.16597392e-08  3.62141252e-05 -3.62257850e-05 
 1.95000000e-09 -1.38653252e-07  3.60863857e-05 -3.62250390e-05 
 2.00000000e-09 -4.52171037e-07  3.57714037e-05 -3.62235748e-05 
 2.01000000e-09 -1.58122482e-07  3.60652968e-05 -3.62234192e-05 
 2.03000000e-09  1.05446664e-06  3.72787772e-05 -3.62243106e-05 
 2.07000000e-09  7.10995271e-06  4.33504448e-05 -3.62404920e-05 
 2.15000000e-09  1.81917725e-05  5.45324497e-05 -3.63406773e-05 
 2.25000000e-09  2.85705101e-06  3.93022157e-05 -3.64451647e-05 
 2.35000000e-09  2.04516801e-06  3.85493636e-05 -3.65041956e-05 
 2.45000000e-09 -1.06642818e-05  2.59242746e-05 -3.65885564e-05 
 2.55000000e-09 -1.69091818e-05  1.98269618e-05 -3.67361436e-05 
 2.65000000e-09 -1.48079607e-05  2.20774172e-05 -3.68853779e-05 
 2.75000000e-09  1.49933045e-05  5.18579755e-05 -3.68646710e-05 
 2.85000000e-09 -1.38821512e-05  2.29518940e-05 -3.68340451e-05 
 2.95000000e-09  1.42696396e-05  5.10730212e-05 -3.68033816e-05 
 3.05000000e-09 -1.35703975e-05  2.32000417e-05 -3.67704392e-05 
 3.15000000e-09  1.37740656e-05  5.05126983e-05 -3.67386326e-05 
 3.25000000e-09 -1.32260101e-05  2.34795765e-05 -3.67055866e-05 
 3.35000000e-09  1.33312221e-05  5.00053236e-05 -3.66741015e-05 
 3.45000000e-09 -1.28663961e-05  2.37752548e-05 -3.66416508e-05 
 3.55000000e-09  1.29181020e-05  4.95289436e-05 -3.66108416e-05 
 3.65000000e-09 -1.25032518e-05  2.40758897e-05 -3.65791415e-05 
 3.75000000e-09  1.25265890e-05  4.90756475e-05 -3.65490585e-05 
 3.85000000e-09 -1.21415765e-05  2.43765249e-05 -3.65181014e-05 
 3.95000000e-09  1.21528136e-05  4.86415225e-05 -3.64887089e-05 
 4.05000000e-09 -1.17837287e-05  2.46747156e-05 -3.64584443e-05 
 4.15000000e-09  1.17945432e-05  4.82242302e-05 -3.64296870e-05 
 4.25000000e-09 -1.14309740e-05  2.49690841e-05 -3.64000581e-05 
 4.35000000e-09  1.14502719e-05  4.78221533e-05 -3.63718814e-05 
 4.45000000e-09 -1.10840693e-05  2.52587663e-05 -3.63428356e-05 
 4.55000000e-09  1.11188681e-05  4.74340591e-05 -3.63151910e-05 
 4.65000000e-09 -1.07434985e-05  2.55431839e-05 -3.62866823e-05 
 4.75000000e-09  1.07994240e-05  4.70589516e-05 -3.62595276e-05 
 4.85000000e-09 -1.04095799e-05  2.58219366e-05 -3.62315165e-05 
 4.95000000e-09  1.04911886e-05  4.66960041e-05 -3.62048156e-05 
 5.05000000e-09 -1.00825265e-05  2.60947414e-05 -3.61772679e-05 
 5.15000000e-09  1.01935266e-05  4.63445163e-05 -3.61509897e-05 
 5.25000000e-09 -9.76246972e-06  2.63614063e-05 -3.61238761e-05 
 5.35000000e-09  9.90587915e-06  4.60038730e-05 -3.60979938e-05 
 5.45000000e-09 -9.44946957e-06  2.66218192e-05 -3.60712888e-05 
 5.55000000e-09  9.62774906e-06  4.56735284e-05 -3.60457794e-05 
 5.65000000e-09 -9.14353929e-06  2.68759214e-05 -3.60194607e-05 
 5.75000000e-09  9.35869323e-06  4.53529972e-05 -3.59943040e-05 
 5.85000000e-09 -8.84465708e-06  2.71236953e-05 -3.59683524e-05 
 5.95000000e-09  9.09831310e-06  4.50418438e-05 -3.59435307e-05 
 6.00000000e-09 -8.42310293e-06  2.75073738e-05 -3.59304767e-05 
 6.01000000e-09 -1.22629532e-07  3.58055538e-05 -3.59281833e-05 
 6.03000000e-09  5.17379338e-07  3.64405597e-05 -3.59231804e-05 
 6.07000000e-09 -8.38822073e-08  3.58292757e-05 -3.59131579e-05 
 6.15000000e-09  5.06845559e-07  3.64000497e-05 -3.58932042e-05 
 6.25000000e-09 -5.57187467e-08  3.58126718e-05 -3.58683905e-05 
 6.35000000e-09  5.16186048e-07  3.63599362e-05 -3.58437501e-05 
 6.45000000e-09 -2.88372321e-08  3.57904012e-05 -3.58192384e-05 
 6.55000000e-09  5.25687336e-07  3.63205760e-05 -3.57948886e-05 
 6.65000000e-09  3.60115140e-10  3.57710390e-05 -3.57706789e-05 
 6.75000000e-09  5.37874992e-07  3.62845181e-05 -3.57466431e-05 
 6.85000000e-09  2.78483906e-08  3.57505783e-05 -3.57227299e-05 
 6.95000000e-09  5.50492670e-07  3.62494726e-05 -3.56989800e-05 
 7.00000000e-09  5.23610381e-08  3.57394983e-05 -3.56871373e-05 
 7.01000000e-09  2.97427847e-07  3.59822133e-05 -3.56847855e-05 
 7.03000000e-09  3.03780666e-07  3.59838429e-05 -3.56800622e-05 
 7.07000000e-09  3.05655744e-07  3.59762898e-05 -3.56706340e-05 
 7.15000000e-09  3.18621661e-07  3.59704780e-05 -3.56518564e-05 
 7.25000000e-09  3.22113731e-07  3.59506097e-05 -3.56284960e-05 
 7.35000000e-09  3.39770987e-07  3.59450457e-05 -3.56052747e-05 
 7.45000000e-09  3.41530908e-07  3.59237099e-05 -3.55821790e-05 
 7.55000000e-09  3.60604620e-07  3.59198214e-05 -3.55592168e-05 
 7.65000000e-09  3.61382586e-07  3.58977611e-05 -3.55363786e-05 
 7.75000000e-09  3.81260991e-07  3.58949305e-05 -3.55136695e-05 
 7.85000000e-09  3.81487172e-07  3.58725698e-05 -3.54910826e-05 
 7.95000000e-09  4.01796954e-07  3.58704181e-05 -3.54686212e-05 
 8.05000000e-09  4.01739787e-07  3.58480196e-05 -3.54462798e-05 
 8.15000000e-09  4.22234968e-07  3.58462957e-05 -3.54240607e-05 
 8.25000000e-09  4.22068855e-07  3.58240284e-05 -3.54019596e-05 
 8.35000000e-09  4.42585300e-07  3.58225633e-05 -3.53799780e-05 
 8.45000000e-09  4.42422686e-07  3.58005350e-05 -3.53581123e-05 
 8.55000000e-09  4.62847686e-07  3.57992114e-05 -3.53363637e-05 
 8.65000000e-09  4.62762784e-07  3.57774919e-05 -3.53147291e-05 
 8.75000000e-09  4.83018699e-07  3.57762279e-05 -3.52932092e-05 
 8.85000000e-09  4.83059163e-07  3.57548606e-05 -3.52718015e-05 
 8.95000000e-09  5.03092281e-07  3.57535987e-05 -3.52505064e-05 
 9.05000000e-09  5.03288439e-07  3.57326102e-05 -3.52293217e-05 
 9.15000000e-09  5.23062000e-07  3.57313099e-05 -3.52082479e-05 
 9.25000000e-09  5.23431494e-07  3.57107141e-05 -3.51872827e-05 
 9.35000000e-09  5.42921158e-07  3.57093477e-05 -3.51664265e-05 
 9.45000000e-09  5.43473138e-07  3.56891505e-05 -3.51456774e-05 
 9.55000000e-09  5.62663084e-07  3.56876987e-05 -3.51250357e-05 
 9.65000000e-09  5.63400980e-07  3.56679005e-05 -3.51044995e-05 
 9.75000000e-09  5.82281487e-07  3.56663506e-05 -3.50840691e-05 
 9.85000000e-09  5.83204975e-07  3.56469478e-05 -3.50637428e-05 
 9.95000000e-09  6.01770645e-07  3.56452916e-05 -3.50435209e-05 
 1.00500000e-08  6.02876869e-07  3.56262786e-05 -3.50234017e-05 
 1.01500000e-08  6.21125304e-07  3.56245108e-05 -3.50033855e-05 
 1.02500000e-08  6.22409918e-07  3.56058805e-05 -3.49834706e-05 
 1.03500000e-08  6.40340948e-07  3.56039982e-05 -3.49636573e-05 
 1.04500000e-08  6.41798542e-07  3.55857426e-05 -3.49439441e-05 
 1.05500000e-08  6.59413563e-07  3.55837448e-05 -3.49243313e-05 
 1.06500000e-08  6.61038191e-07  3.55658555e-05 -3.49048173e-05 
 1.07500000e-08  6.78339687e-07  3.55637421e-05 -3.48854024e-05 
 1.08500000e-08  6.80125114e-07  3.55462103e-05 -3.48660852e-05 
 1.09500000e-08  6.97116392e-07  3.55439823e-05 -3.48468659e-05 
 1.10000000e-08  6.94423349e-07  3.55317157e-05 -3.48372923e-05 
 1.10100000e-08  7.02630890e-07  3.55380158e-05 -3.48353849e-05 
 1.10300000e-08  6.94070924e-07  3.55256321e-05 -3.48315611e-05 
 1.10700000e-08  7.09649157e-07  3.55335771e-05 -3.48239279e-05 
 1.11500000e-08  7.08281153e-07  3.55170005e-05 -3.48087194e-05 
 1.12500000e-08  7.24570855e-07  3.55143566e-05 -3.47897857e-05 
 1.13500000e-08  7.28140535e-07  3.54990942e-05 -3.47709536e-05 
 1.14500000e-08  7.42496580e-07  3.54947100e-05 -3.47522134e-05 
 1.15500000e-08  7.46680543e-07  3.54802486e-05 -3.47335680e-05 
 1.16500000e-08  7.67874736e-07  3.54829260e-05 -3.47150512e-05 
 1.17500000e-08  7.57820319e-07  3.54544122e-05 -3.46965919e-05 
 1.18500000e-08  7.39944840e-07  3.54179414e-05 -3.46779966e-05 
 1.19500000e-08  6.13403773e-07  3.52720910e-05 -3.46586873e-05 
 1.20000000e-08  1.40438354e-07  3.47879836e-05 -3.46475453e-05 
 1.20100000e-08  2.87883597e-07  3.49331135e-05 -3.46452299e-05 
 1.20300000e-08  1.07566544e-06  3.57170488e-05 -3.46413833e-05 
 1.20700000e-08  5.94889553e-06  4.05938324e-05 -3.46449368e-05 
 1.21500000e-08  1.86491146e-05  5.33708940e-05 -3.47217793e-05 
 1.22500000e-08  1.55503393e-05  5.04156409e-05 -3.48653016e-05 
 1.23500000e-08  6.98024705e-06  4.19309468e-05 -3.49506997e-05 
 1.24500000e-08  4.26248244e-06  3.92454836e-05 -3.49830012e-05 
 1.25500000e-08  9.57304339e-07  3.59610598e-05 -3.50037554e-05 
 1.26500000e-08 -1.96687675e-06  3.30659543e-05 -3.50328310e-05 
 1.27500000e-08 -6.33189760e-06  2.87476515e-05 -3.50795491e-05 
 1.28500000e-08 -9.92677509e-06  2.52214105e-05 -3.51481856e-05 
 1.29500000e-08 -1.59463287e-05  1.93035329e-05 -3.52498616e-05 
 1.30500000e-08 -3.06740620e-05  4.76819080e-06 -3.54422528e-05 
 1.31500000e-08 -6.79909761e-06  2.87799822e-05 -3.55790799e-05 
 1.32500000e-08 -2.95666916e-06  3.26141367e-05 -3.55708058e-05 
 1.33500000e-08  5.11498643e-06  4.06135389e-05 -3.54985525e-05 
 1.34500000e-08  1.10537522e-07  3.55187039e-05 -3.54081663e-05 
 1.35500000e-08  5.37876406e-06  4.06935341e-05 -3.53147700e-05 
 1.36500000e-08 -2.67065616e-08  3.51943835e-05 -3.52210901e-05 
 1.37500000e-08  4.99360508e-06  4.01224831e-05 -3.51288780e-05 
 1.38500000e-08 -2.27321129e-07  3.48102343e-05 -3.50375554e-05 
 1.39500000e-08  4.66607462e-06  3.96140990e-05 -3.49480244e-05 
 1.40500000e-08 -3.59781950e-07  3.44996990e-05 -3.48594809e-05 
 1.41500000e-08  4.40702503e-06  3.91797330e-05 -3.47727080e-05 
 1.42500000e-08 -4.35628558e-07  3.42512414e-05 -3.46868699e-05 
 1.43500000e-08  4.20192177e-06  3.88046241e-05 -3.46027023e-05 
 1.44500000e-08 -4.68411792e-07  3.40509614e-05 -3.45193732e-05 
 1.45500000e-08  4.03858860e-06  3.84761813e-05 -3.44375927e-05 
 1.46500000e-08 -4.68671309e-07  3.38878742e-05 -3.43565455e-05 
 1.47500000e-08  3.90773670e-06  3.81846621e-05 -3.42769254e-05 
 1.48500000e-08 -4.44343685e-07  3.37535953e-05 -3.41979390e-05 
 1.49500000e-08  3.80237186e-06  3.79226394e-05 -3.41202675e-05 
 1.50500000e-08 -4.01372264e-07  3.36417685e-05 -3.40431408e-05 
 1.51500000e-08  3.71722595e-06  3.76844550e-05 -3.39672291e-05 
 1.52500000e-08 -3.44219413e-07  3.35475657e-05 -3.38917851e-05 
 1.53500000e-08  3.64830690e-06  3.74657754e-05 -3.38174685e-05 
 1.54500000e-08 -2.76257430e-07  3.34672967e-05 -3.37435542e-05 
 1.55500000e-08  3.59256217e-06  3.72632531e-05 -3.36706909e-05 
 1.56500000e-08 -2.00056229e-07  3.33981186e-05 -3.35981748e-05 
 1.57500000e-08  3.54763316e-06  3.70742767e-05 -3.35266435e-05 
 1.58500000e-08 -1.17592264e-07  3.33378211e-05 -3.34554133e-05 
 1.59500000e-08  3.51167731e-06  3.68967876e-05 -3.33851102e-05 
 1.60000000e-08 -8.64809009e-09  3.33412927e-05 -3.33499408e-05 
 1.60100000e-08  1.65176378e-06  3.49947926e-05 -3.33430288e-05 
 1.60300000e-08  1.80345996e-06  3.51325428e-05 -3.33290829e-05 
 1.60700000e-08  1.66904911e-06  3.49702970e-05 -3.33012479e-05 
 1.61500000e-08  1.81376828e-06  3.50596043e-05 -3.32458360e-05 
 1.62500000e-08  1.70291152e-06  3.48799704e-05 -3.31770589e-05 
 1.63500000e-08  1.84582427e-06  3.49546325e-05 -3.31088082e-05 
 1.64500000e-08  1.74209677e-06  3.47831558e-05 -3.30410591e-05 
 1.65500000e-08  1.88054540e-06  3.48543415e-05 -3.29737961e-05 
 1.66500000e-08  1.78583008e-06  3.46928440e-05 -3.29070139e-05 
 1.67500000e-08  1.92092795e-06  3.47616368e-05 -3.28407089e-05 
 1.68500000e-08  1.83166993e-06  3.46065271e-05 -3.27748572e-05 
 1.69500000e-08  1.96382484e-06  3.46732815e-05 -3.27094567e-05 
 1.70000000e-08  1.86677961e-06  3.45436898e-05 -3.26769102e-05 
 1.70100000e-08  1.92453326e-06  3.45949555e-05 -3.26704222e-05 
 1.70300000e-08  1.92267902e-06  3.45801201e-05 -3.26574411e-05 
 1.70700000e-08  1.93976859e-06  3.45713001e-05 -3.26315315e-05 
 1.71500000e-08  1.95344249e-06  3.45333664e-05 -3.25799239e-05 
 1.72500000e-08  1.98091498e-06  3.44966922e-05 -3.25157772e-05 
 1.73500000e-08  2.00243456e-06  3.44544737e-05 -3.24520392e-05 
 1.74500000e-08  2.02885402e-06  3.44175462e-05 -3.23886922e-05 
 1.75500000e-08  2.05237173e-06  3.43781080e-05 -3.23257362e-05 
 1.76500000e-08  2.07824416e-06  3.43414022e-05 -3.22631580e-05 
 1.77500000e-08  2.10312499e-06  3.43040810e-05 -3.22009560e-05 
 1.78500000e-08  2.12871799e-06  3.42678374e-05 -3.21391195e-05 
 1.79500000e-08  2.15454622e-06  3.42321923e-05 -3.20776461e-05 
 1.80500000e-08  2.18000520e-06  3.41965324e-05 -3.20165272e-05 
 1.81500000e-08  2.20649253e-06  3.41622525e-05 -3.19557599e-05 
 1.82500000e-08  2.23189520e-06  3.41272324e-05 -3.18953372e-05 
 1.83500000e-08  2.25883125e-06  3.40940872e-05 -3.18352559e-05 
 1.84500000e-08  2.28421757e-06  3.40597276e-05 -3.17755101e-05 
 1.85500000e-08  2.31144596e-06  3.40275426e-05 -3.17160967e-05 
 1.86500000e-08  2.33683177e-06  3.39938421e-05 -3.16570104e-05 
 1.87500000e-08  2.36423470e-06  3.39624831e-05 -3.15982484e-05 
 1.88500000e-08  2.38962161e-06  3.39294276e-05 -3.15398059e-05 
 1.89500000e-08  2.41710926e-06  3.38987897e-05 -3.14816805e-05 
 1.90500000e-08  2.44248994e-06  3.38663576e-05 -3.14238677e-05 
 1.91500000e-08  2.46999292e-06  3.38363580e-05 -3.13663651e-05 
 1.92500000e-08  2.49535550e-06  3.38045245e-05 -3.13091690e-05 
 1.93500000e-08  2.52281962e-06  3.37750965e-05 -3.12522769e-05 
 1.94500000e-08  2.54814970e-06  3.37438351e-05 -3.11956854e-05 
 1.95500000e-08  2.57553244e-06  3.37149247e-05 -3.11393923e-05 
 1.96500000e-08  2.60081472e-06  3.36842091e-05 -3.10833944e-05 
 1.97500000e-08  2.62808240e-06  3.36557721e-05 -3.10276897e-05 
 1.98500000e-08  2.65330164e-06  3.36255769e-05 -3.09722753e-05 
 1.99500000e-08  2.68042738e-06  3.35975765e-05 -3.09171491e-05 
 2.00500000e-08  2.70556905e-06  3.35678776e-05 -3.08623085e-05 
 2.01500000e-08  2.73253125e-06  3.35402829e-05 -3.08077517e-05 
 2.02500000e-08  2.75758184e-06  3.35110579e-05 -3.07534760e-05 
 2.03500000e-08  2.78436311e-06  3.34838430e-05 -3.06994799e-05 
 2.04500000e-08  2.80931030e-06  3.34550711e-05 -3.06457608e-05 
 2.05500000e-08  2.83589653e-06  3.34282138e-05 -3.05923172e-05 
 2.06500000e-08  2.86072923e-06  3.33998761e-05 -3.05391468e-05 
 2.07500000e-08  2.88710902e-06  3.33733571e-05 -3.04862481e-05 
 2.08500000e-08  2.91181734e-06  3.33454361e-05 -3.04336188e-05 
 2.09500000e-08  2.93798149e-06  3.33192391e-05 -3.03812576e-05 
 2.10000000e-08  2.94992153e-06  3.33050983e-05 -3.03551768e-05 
 2.10100000e-08  2.95613775e-06  3.33061111e-05 -3.03499734e-05 
 2.10300000e-08  2.95182968e-06  3.32913920e-05 -3.03395623e-05 
 2.10700000e-08  2.97241907e-06  3.32911932e-05 -3.03187741e-05 
 2.11500000e-08  2.98471573e-06  3.32620503e-05 -3.02773345e-05 
 2.12500000e-08  3.01614365e-06  3.32419074e-05 -3.02257638e-05 
 2.13500000e-08  3.03595843e-06  3.32104178e-05 -3.01744594e-05 
 2.14500000e-08  3.06570100e-06  3.31891134e-05 -3.01234124e-05 
 2.15500000e-08  3.08600019e-06  3.31586249e-05 -3.00726247e-05 
 2.16500000e-08  3.12295316e-06  3.31450846e-05 -3.00221315e-05 
 2.17500000e-08  3.12690941e-06  3.30987601e-05 -2.99718506e-05 
 2.18500000e-08  3.13516923e-06  3.30568088e-05 -2.99216396e-05 
 2.19500000e-08  3.06024299e-06  3.29313493e-05 -2.98711063e-05 
 2.20000000e-08  2.59585591e-06  3.24403583e-05 -2.98445024e-05 
 2.20100000e-08  2.65044304e-06  3.24894494e-05 -2.98390064e-05 
 2.20300000e-08  3.03824099e-06  3.28666420e-05 -2.98284010e-05 
 2.20700000e-08  6.44729396e-06  3.62620375e-05 -2.98147435e-05 
 2.21500000e-08  2.00036984e-05  4.98585353e-05 -2.98548369e-05 
 2.22500000e-08  2.18891069e-05  5.18706117e-05 -2.99815048e-05 
 2.23500000e-08  1.25302896e-05  4.26010589e-05 -3.00707693e-05 
 2.24500000e-08  7.88370981e-06  3.79744457e-05 -3.00907359e-05 
 2.25500000e-08  5.27709160e-06  3.53616472e-05 -3.00845556e-05 
 2.26500000e-08  2.10368736e-06  3.21820038e-05 -3.00783165e-05 
 2.27500000e-08 -1.36827924e-06  2.87150009e-05 -3.00832801e-05 
 2.28500000e-08 -5.17093924e-06  2.49333180e-05 -3.01042573e-05 
 2.29500000e-08 -8.67154663e-06  2.14728185e-05 -3.01443651e-05 
 2.30500000e-08 -1.39146869e-05  1.62992874e-05 -3.02139743e-05 
 2.31500000e-08 -2.87203704e-05  1.65159128e-06 -3.03719617e-05 
 2.32500000e-08 -1.13298861e-05  1.91778588e-05 -3.05077449e-05 
 2.33500000e-08 -1.77016760e-06  2.87326586e-05 -3.05028262e-05 
 2.34500000e-08  5.31036987e-06  3.57211970e-05 -3.04108272e-05 
 2.35500000e-08  4.65600750e-06  3.49404577e-05 -3.02844502e-05 
 2.36500000e-08  6.99566223e-06  3.71440867e-05 -3.01484244e-05 
 2.37500000e-08  4.85240223e-06  3.48633402e-05 -3.00109379e-05 
 2.38500000e-08  6.69475136e-06  3.65696665e-05 -2.98749151e-05 
 2.39500000e-08  4.53834145e-06  3.42791368e-05 -2.97407954e-05 
 2.40500000e-08  6.33663663e-06  3.59456386e-05 -2.96090020e-05 
 2.41500000e-08  4.28621698e-06  3.37654320e-05 -2.94792150e-05 
 2.42500000e-08  6.06568128e-06  3.54173018e-05 -2.93516205e-05 
 2.43500000e-08  4.11635884e-06  3.33421974e-05 -2.92258386e-05 
 2.44500000e-08  5.86968057e-06  3.49717141e-05 -2.91020335e-05 
 2.45500000e-08  4.01019424e-06  3.29900285e-05 -2.89798343e-05 
 2.46500000e-08  5.73052333e-06  3.45899313e-05 -2.88594080e-05 
 2.47500000e-08  3.95175322e-06  3.26921548e-05 -2.87404016e-05 
 2.48500000e-08  5.63439960e-06  3.42573882e-05 -2.86229886e-05 
 2.49500000e-08  3.92926438e-06  3.24360995e-05 -2.85068351e-05 
 2.50500000e-08  5.57119493e-06  3.39633158e-05 -2.83921209e-05 
 2.51500000e-08  3.93410905e-06  3.22126388e-05 -2.82785298e-05 
 2.52500000e-08  5.53346436e-06  3.36997114e-05 -2.81662471e-05 
 2.53500000e-08  3.95992098e-06  3.20148937e-05 -2.80549727e-05 
 2.54500000e-08  5.51566783e-06  3.34605635e-05 -2.79448957e-05 
 2.55500000e-08  4.00194432e-06  3.18376749e-05 -2.78357305e-05 
 2.56500000e-08  5.51363268e-06  3.32413015e-05 -2.77276688e-05 
 2.57500000e-08  4.05658416e-06  3.16770220e-05 -2.76204378e-05 
 2.58500000e-08  5.52417735e-06  3.30384079e-05 -2.75142305e-05 
 2.59500000e-08  4.12109126e-06  3.15298769e-05 -2.74087857e-05 
 2.60000000e-08  5.52118788e-06  3.28776536e-05 -2.73564657e-05 
 2.60100000e-08  4.86471734e-06  3.22107063e-05 -2.73459889e-05 
 2.60300000e-08  4.82647042e-06  3.21515851e-05 -2.73251147e-05 
 2.60700000e-08  4.87730554e-06  3.21607762e-05 -2.72834706e-05 
 2.61500000e-08  4.85379578e-06  3.20543438e-05 -2.72005480e-05 
 2.62500000e-08  4.92550425e-06  3.20231178e-05 -2.70976135e-05 
 2.63500000e-08  4.90886995e-06  3.19043048e-05 -2.69954348e-05 
 2.64500000e-08  4.98264923e-06  3.18766451e-05 -2.68939958e-05 
 2.65500000e-08  4.96761813e-06  3.17608749e-05 -2.67932567e-05 
