 time            v(Vout+)        v(Vout-)        v(vout+)-v(vout-)
 0.00000000e+00  1.77595433e-10  4.56584001e-05 -4.56582225e-05 
 1.00000000e-12  1.87015225e-10  4.56584095e-05 -4.56582225e-05 
 2.00000000e-12  1.85236241e-10  4.56584077e-05 -4.56582225e-05 
 4.00000000e-12  1.81043824e-10  4.56584035e-05 -4.56582225e-05 
 8.00000000e-12  1.76413671e-10  4.56583989e-05 -4.56582225e-05 
 1.60000000e-11  1.75393852e-10  4.56583979e-05 -4.56582225e-05 
 3.20000000e-11  1.76965033e-10  4.56583994e-05 -4.56582225e-05 
 6.40000000e-11  1.77952675e-10  4.56584004e-05 -4.56582225e-05 
 1.28000000e-10  1.77467442e-10  4.56583999e-05 -4.56582225e-05 
 2.28000000e-10  1.77757965e-10  4.56584002e-05 -4.56582225e-05 
 3.28000000e-10  1.77437545e-10  4.56583999e-05 -4.56582225e-05 
 4.28000000e-10  1.77731050e-10  4.56584002e-05 -4.56582225e-05 
 5.28000000e-10  1.77451131e-10  4.56583999e-05 -4.56582225e-05 
 6.28000000e-10  1.77717155e-10  4.56584002e-05 -4.56582225e-05 
 7.28000000e-10  1.77463477e-10  4.56583999e-05 -4.56582225e-05 
 8.28000000e-10  1.77705158e-10  4.56584002e-05 -4.56582225e-05 
 9.28000000e-10  1.77456542e-10  4.56583999e-05 -4.56582225e-05 
 1.00000000e-09  1.77698243e-10  4.56584002e-05 -4.56582225e-05 
 1.01000000e-09  4.34117338e-09  4.56625664e-05 -4.56582252e-05 
 1.03000000e-09 -7.64616331e-09  4.56505766e-05 -4.56582228e-05 
 1.07000000e-09  5.95986880e-09  4.56641800e-05 -4.56582201e-05 
 1.15000000e-09 -4.15013377e-09  4.56540738e-05 -4.56582239e-05 
 1.25000000e-09  3.72272518e-09  4.56619441e-05 -4.56582214e-05 
 1.35000000e-09 -2.60917731e-09  4.56556147e-05 -4.56582239e-05 
 1.45000000e-09  3.62501502e-09  4.56618511e-05 -4.56582261e-05 
 1.55000000e-09 -6.91890610e-09  4.56512951e-05 -4.56582140e-05 
 1.65000000e-09  1.76723813e-08  4.56759208e-05 -4.56582484e-05 
 1.75000000e-09 -2.42775950e-08  4.56339477e-05 -4.56582253e-05 
 1.85000000e-09  8.33802748e-10  4.56589806e-05 -4.56581468e-05 
 1.95000000e-09 -1.31075199e-07  4.55266405e-05 -4.56577157e-05 
 2.00000000e-09 -4.77418564e-07  4.51792923e-05 -4.56567108e-05 
 2.01000000e-09 -3.62014536e-07  4.52944576e-05 -4.56564722e-05 
 2.03000000e-09  3.62056320e-07  4.60185299e-05 -4.56564736e-05 
 2.07000000e-09  5.01930055e-06  5.06828836e-05 -4.56635831e-05 
 2.15000000e-09  1.71487934e-05  6.28709023e-05 -4.57221088e-05 
 2.25000000e-09  6.40313108e-06  5.22026388e-05 -4.57995077e-05 
 2.35000000e-09  1.37857354e-07  4.59728426e-05 -4.58349852e-05 
 2.45000000e-09 -5.35796488e-06  4.05214476e-05 -4.58794125e-05 
 2.55000000e-09 -1.52731830e-05  3.06821181e-05 -4.59553011e-05 
 2.65000000e-09 -2.39458051e-05  2.21328744e-05 -4.60786795e-05 
 2.75000000e-09  1.41051347e-05  6.02014138e-05 -4.60962791e-05 
 2.85000000e-09 -1.07885749e-05  3.52767014e-05 -4.60652764e-05 
 2.95000000e-09  1.23096758e-05  5.83472105e-05 -4.60375347e-05 
 3.05000000e-09 -1.06165968e-05  3.53913671e-05 -4.60079638e-05 
 3.15000000e-09  1.18169644e-05  5.77962954e-05 -4.59793310e-05 
 3.25000000e-09 -1.05175506e-05  3.54326035e-05 -4.59501541e-05 
 3.35000000e-09  1.14206307e-05  5.73428032e-05 -4.59221725e-05 
 3.45000000e-09 -1.03744489e-05  3.55193740e-05 -4.58938229e-05 
 3.55000000e-09  1.10724642e-05  5.69391596e-05 -4.58666954e-05 
 3.65000000e-09 -1.02022606e-05  3.56369435e-05 -4.58392041e-05 
 3.75000000e-09  1.07578761e-05  5.65707604e-05 -4.58128843e-05 
 3.85000000e-09 -1.00116469e-05  3.57745194e-05 -4.57861663e-05 
 3.95000000e-09  1.04683532e-05  5.62289081e-05 -4.57605549e-05 
 4.05000000e-09 -9.80922380e-06  3.59252844e-05 -4.57345082e-05 
 4.15000000e-09  1.01984100e-05  5.59079173e-05 -4.57095073e-05 
 4.25000000e-09 -9.59929386e-06  3.60847461e-05 -4.56840400e-05 
 4.35000000e-09  9.94430908e-06  5.56038744e-05 -4.56595654e-05 
 4.45000000e-09 -9.38478886e-06  3.62498120e-05 -4.56346008e-05 
 4.55000000e-09  9.70338656e-06  5.53139701e-05 -4.56105835e-05 
 4.65000000e-09 -9.16778034e-06  3.64182790e-05 -4.55860593e-05 
 4.75000000e-09  9.47367660e-06  5.50361199e-05 -4.55624433e-05 
 4.85000000e-09 -8.94977068e-06  3.65885379e-05 -4.55383086e-05 
 4.95000000e-09  9.25368872e-06  5.47687370e-05 -4.55150482e-05 
 5.05000000e-09 -8.73186966e-06  3.67593921e-05 -4.54912617e-05 
 5.15000000e-09  9.04226865e-06  5.45105885e-05 -4.54683199e-05 
 5.25000000e-09 -8.51490785e-06  3.69299398e-05 -4.54448477e-05 
 5.35000000e-09  8.83850647e-06  5.42607003e-05 -4.54221938e-05 
 5.45000000e-09 -8.29951073e-06  3.70994972e-05 -4.53990079e-05 
 5.55000000e-09  8.64167304e-06  5.40182898e-05 -4.53766167e-05 
 5.65000000e-09 -8.08615134e-06  3.72675426e-05 -4.53536940e-05 
 5.75000000e-09  8.45117617e-06  5.37827207e-05 -4.53315446e-05 
 5.85000000e-09 -7.87518958e-06  3.74336760e-05 -4.53088656e-05 
 5.95000000e-09  8.26653546e-06  5.35534759e-05 -4.52869404e-05 
 6.00000000e-09 -7.57431713e-06  3.77012275e-05 -4.52755446e-05 
 6.01000000e-09  1.29299294e-08  4.52864107e-05 -4.52734808e-05 
 6.03000000e-09  4.83683037e-07  4.57527498e-05 -4.52690668e-05 
 6.07000000e-09  3.61475294e-08  4.52963818e-05 -4.52602343e-05 
 6.15000000e-09  4.77305074e-07  4.57199267e-05 -4.52426216e-05 
 6.25000000e-09  5.68376544e-08  4.52775302e-05 -4.52206926e-05 
 6.35000000e-09  4.86254115e-07  4.56851244e-05 -4.51988703e-05 
 6.45000000e-09  7.71495716e-08  4.52542835e-05 -4.51771340e-05 
 6.55000000e-09  4.95617196e-07  4.56511131e-05 -4.51554959e-05 
 6.65000000e-09  9.94413593e-08  4.52333878e-05 -4.51339465e-05 
 6.75000000e-09  5.07958078e-07  4.56204605e-05 -4.51125024e-05 
 6.85000000e-09  1.21061063e-07  4.52121986e-05 -4.50911376e-05 
 6.95000000e-09  5.20944218e-07  4.55908153e-05 -4.50698711e-05 
 7.00000000e-09  1.39158480e-07  4.51984178e-05 -4.50592593e-05 
 7.01000000e-09  3.30452835e-07  4.53875994e-05 -4.50571466e-05 
 7.03000000e-09  3.30142213e-07  4.53830519e-05 -4.50529097e-05 
 7.07000000e-09  3.37377078e-07  4.53818243e-05 -4.50444473e-05 
 7.15000000e-09  3.43825313e-07  4.53713966e-05 -4.50275713e-05 
 7.25000000e-09  3.51503899e-07  4.53580480e-05 -4.50065441e-05 
 7.35000000e-09  3.62819500e-07  4.53484215e-05 -4.49856020e-05 
 7.45000000e-09  3.68558843e-07  4.53332948e-05 -4.49647359e-05 
 7.55000000e-09  3.81653598e-07  4.53256048e-05 -4.49439512e-05 
 7.65000000e-09  3.86217276e-07  4.53094588e-05 -4.49232416e-05 
 7.75000000e-09  4.00437074e-07  4.53030475e-05 -4.49026104e-05 
 7.85000000e-09  4.04275311e-07  4.52863284e-05 -4.48820531e-05 
 7.95000000e-09  4.19213239e-07  4.52807852e-05 -4.48615720e-05 
 8.05000000e-09  4.22608908e-07  4.52637725e-05 -4.48411636e-05 
 8.15000000e-09  4.37993766e-07  4.52588231e-05 -4.48208294e-05 
 8.25000000e-09  4.41130973e-07  4.52416976e-05 -4.48005667e-05 
 8.35000000e-09  4.56779484e-07  4.52371560e-05 -4.47803765e-05 
 8.45000000e-09  4.59778917e-07  4.52200357e-05 -4.47602568e-05 
 8.55000000e-09  4.75562756e-07  4.52157710e-05 -4.47402082e-05 
 8.65000000e-09  4.78505413e-07  4.51987344e-05 -4.47202290e-05 
 8.75000000e-09  4.94334496e-07  4.51946543e-05 -4.47003198e-05 
 8.85000000e-09  4.97273733e-07  4.51777527e-05 -4.46804789e-05 
 8.95000000e-09  5.13084062e-07  4.51737910e-05 -4.46607069e-05 
 9.05000000e-09  5.16055509e-07  4.51570580e-05 -4.46410025e-05 
 9.15000000e-09  5.31801542e-07  4.51531675e-05 -4.46213660e-05 
 9.25000000e-09  5.34827865e-07  4.51366241e-05 -4.46017962e-05 
 9.35000000e-09  5.50477520e-07  4.51327709e-05 -4.45822934e-05 
 9.45000000e-09  5.53572609e-07  4.51164292e-05 -4.45628566e-05 
 9.55000000e-09  5.69103289e-07  4.51125893e-05 -4.45434860e-05 
 9.65000000e-09  5.72275216e-07  4.50964560e-05 -4.45241807e-05 
 9.75000000e-09  5.87670991e-07  4.50926119e-05 -4.45049409e-05 
 9.85000000e-09  5.90923925e-07  4.50766897e-05 -4.44857658e-05 
 9.95000000e-09  6.06173672e-07  4.50728291e-05 -4.44666554e-05 
 1.00500000e-08  6.09509171e-07  4.50571183e-05 -4.44476092e-05 
 1.01500000e-08  6.24605242e-07  4.50532323e-05 -4.44286270e-05 
 1.02500000e-08  6.28023164e-07  4.50377315e-05 -4.44097084e-05 
 1.03500000e-08  6.42960425e-07  4.50338137e-05 -4.43908533e-05 
 1.04500000e-08  6.46459491e-07  4.50185206e-05 -4.43720612e-05 
 1.05500000e-08  6.61234639e-07  4.50145667e-05 -4.43533320e-05 
 1.06500000e-08  6.64812890e-07  4.49994782e-05 -4.43346653e-05 
 1.07500000e-08  6.79423969e-07  4.49954851e-05 -4.43160611e-05 
 1.08500000e-08  6.83079029e-07  4.49805978e-05 -4.42975188e-05 
 1.09500000e-08  6.97525052e-07  4.49765635e-05 -4.42790384e-05 
 1.10000000e-08  6.96763658e-07  4.49665849e-05 -4.42698213e-05 
 1.10100000e-08  7.03951587e-07  4.49719341e-05 -4.42679825e-05 
 1.10300000e-08  6.95281699e-07  4.49595809e-05 -4.42642992e-05 
 1.10700000e-08  7.10682768e-07  4.49676243e-05 -4.42569415e-05 
 1.11500000e-08  7.09183334e-07  4.49514470e-05 -4.42422636e-05 
 1.12500000e-08  7.24971928e-07  4.49489369e-05 -4.42239650e-05 
 1.13500000e-08  7.28472228e-07  4.49342038e-05 -4.42057316e-05 
 1.14500000e-08  7.42315902e-07  4.49298728e-05 -4.41875569e-05 
 1.15500000e-08  7.46447952e-07  4.49158909e-05 -4.41694430e-05 
 1.16500000e-08  7.66338633e-07  4.49177484e-05 -4.41514098e-05 
 1.17500000e-08  7.57335964e-07  4.48907496e-05 -4.41334136e-05 
 1.18500000e-08  7.50867023e-07  4.48662345e-05 -4.41153675e-05 
 1.19500000e-08  6.42223465e-07  4.47391655e-05 -4.40969420e-05 
 1.20000000e-08  2.33519375e-07  4.43203933e-05 -4.40868740e-05 
 1.20100000e-08  2.92847230e-07  4.43776122e-05 -4.40847650e-05 
 1.20300000e-08  7.14932770e-07  4.47957598e-05 -4.40808270e-05 
 1.20700000e-08  4.12991005e-06  4.82079429e-05 -4.40780329e-05 
 1.21500000e-08  1.66458796e-05  6.07604689e-05 -4.41145892e-05 
 1.22500000e-08  1.77231452e-05  6.19282932e-05 -4.42051480e-05 
 1.23500000e-08  8.34165569e-06  5.26096987e-05 -4.42680430e-05 
 1.24500000e-08  4.10103835e-06  4.83883528e-05 -4.42873144e-05 
 1.25500000e-08  9.33959235e-07  4.52286446e-05 -4.42946853e-05 
 1.26500000e-08 -2.84836585e-06  4.14591390e-05 -4.43075049e-05 
 1.27500000e-08 -7.09654569e-06  3.72361190e-05 -4.43326647e-05 
 1.28500000e-08 -1.14473608e-05  3.29260928e-05 -4.43734535e-05 
 1.29500000e-08 -1.91463382e-05  2.52973187e-05 -4.44436570e-05 
 1.30500000e-08 -3.38319626e-05  1.07476927e-05 -4.45796554e-05 
 1.31500000e-08 -1.33455972e-06  4.33153353e-05 -4.46498951e-05 
 1.32500000e-08 -4.91564759e-06  3.97038630e-05 -4.46195106e-05 
 1.33500000e-08  9.99429239e-06  5.45426559e-05 -4.45483636e-05 
 1.34500000e-08 -2.26290641e-06  4.22037099e-05 -4.44666163e-05 
 1.35500000e-08  9.78312989e-06  5.41675422e-05 -4.43844123e-05 
 1.36500000e-08 -2.68464472e-06  4.16184263e-05 -4.43030710e-05 
 1.37500000e-08  9.05593501e-06  5.32797387e-05 -4.42238037e-05 
 1.38500000e-08 -3.05585028e-06  4.10899295e-05 -4.41457798e-05 
 1.39500000e-08  8.48113226e-06  5.25508431e-05 -4.40697109e-05 
 1.40500000e-08 -3.28416546e-06  4.07105148e-05 -4.39946803e-05 
 1.41500000e-08  8.03563146e-06  5.19570037e-05 -4.39213722e-05 
 1.42500000e-08 -3.40854178e-06  4.04403508e-05 -4.38488926e-05 
 1.43500000e-08  7.68331814e-06  5.14612444e-05 -4.37779263e-05 
 1.44500000e-08 -3.45935723e-06  4.02482522e-05 -4.37076095e-05 
 1.45500000e-08  7.39881468e-06  5.10374445e-05 -4.36386298e-05 
 1.46500000e-08 -3.45753961e-06  4.01126131e-05 -4.35701527e-05 
 1.47500000e-08  7.16457792e-06  5.06674451e-05 -4.35028672e-05 
 1.48500000e-08 -3.41761188e-06  4.00183536e-05 -4.34359655e-05 
 1.49500000e-08  6.96830729e-06  5.03384433e-05 -4.33701360e-05 
 1.50500000e-08 -3.34980912e-06  3.99547858e-05 -4.33045949e-05 
 1.51500000e-08  6.80123184e-06  5.00412599e-05 -4.32400280e-05 
 1.52500000e-08 -3.26146177e-06  3.99142116e-05 -4.31756734e-05 
 1.53500000e-08  6.65699048e-06  4.97692026e-05 -4.31122121e-05 
 1.54500000e-08 -3.15790294e-06  3.98909991e-05 -4.30489020e-05 
 1.55500000e-08  6.53089371e-06  4.95173123e-05 -4.29864186e-05 
 1.56500000e-08 -3.04306995e-06  3.98809677e-05 -4.29240377e-05 
 1.57500000e-08  6.41943037e-06  4.92818581e-05 -4.28624277e-05 
 1.58500000e-08 -2.91990904e-06  3.98809723e-05 -4.28008813e-05 
 1.59500000e-08  6.31993348e-06  4.90599928e-05 -4.27400593e-05 
 1.60000000e-08 -2.74068944e-06  3.99688478e-05 -4.27095372e-05 
 1.60100000e-08  1.59889959e-06  4.43024555e-05 -4.27035559e-05 
 1.60300000e-08  1.87434067e-06  4.45657921e-05 -4.26914514e-05 
 1.60700000e-08  1.61651818e-06  4.42837946e-05 -4.26672765e-05 
 1.61500000e-08  1.87764987e-06  4.44967387e-05 -4.26190889e-05 
 1.62500000e-08  1.64367351e-06  4.42028303e-05 -4.25591568e-05 
 1.63500000e-08  1.90087904e-06  4.44004302e-05 -4.24995511e-05 
 1.64500000e-08  1.67556675e-06  4.41158162e-05 -4.24402494e-05 
 1.65500000e-08  1.92781904e-06  4.43090643e-05 -4.23812452e-05 
 1.66500000e-08  1.71396786e-06  4.40365026e-05 -4.23225348e-05 
 1.67500000e-08  1.96159382e-06  4.42257112e-05 -4.22641174e-05 
 1.68500000e-08  1.75413314e-06  4.39601033e-05 -4.22059701e-05 
 1.69500000e-08  1.99833422e-06  4.41464304e-05 -4.21480962e-05 
 1.70000000e-08  1.78579513e-06  4.39050440e-05 -4.21192489e-05 
 1.70100000e-08  1.89936630e-06  4.40128596e-05 -4.21134933e-05 
 1.70300000e-08  1.89874565e-06  4.40007229e-05 -4.21019773e-05 
 1.70700000e-08  1.91279071e-06  4.39917673e-05 -4.20789766e-05 
 1.71500000e-08  1.92649584e-06  4.39595983e-05 -4.20331025e-05 
 1.72500000e-08  1.94934792e-06  4.39253231e-05 -4.19759752e-05 
 1.73500000e-08  1.97064272e-06  4.38897344e-05 -4.19190917e-05 
 1.74500000e-08  1.99251425e-06  4.38549544e-05 -4.18624402e-05 
 1.75500000e-08  2.01599914e-06  4.38220205e-05 -4.18060213e-05 
 1.76500000e-08  2.03739134e-06  4.37872178e-05 -4.17498265e-05 
 1.77500000e-08  2.06238473e-06  4.37562400e-05 -4.16938552e-05 
 1.78500000e-08  2.08356639e-06  4.37216672e-05 -4.16381008e-05 
 1.79500000e-08  2.10961747e-06  4.36921797e-05 -4.15825623e-05 
 1.80500000e-08  2.13073588e-06  4.36579702e-05 -4.15272343e-05 
 1.81500000e-08  2.15753157e-06  4.36296472e-05 -4.14721156e-05 
 1.82500000e-08  2.17866585e-06  4.35958678e-05 -4.14172020e-05 
 1.83500000e-08  2.20597920e-06  4.35684712e-05 -4.13624920e-05 
 1.84500000e-08  2.22716987e-06  4.35351521e-05 -4.13079822e-05 
 1.85500000e-08  2.25483345e-06  4.35085046e-05 -4.12536712e-05 
 1.86500000e-08  2.27609797e-06  4.34756540e-05 -4.11995560e-05 
 1.87500000e-08  2.30398658e-06  4.34496219e-05 -4.11456354e-05 
 1.88500000e-08  2.32532824e-06  4.34172349e-05 -4.10919067e-05 
 1.89500000e-08  2.35334768e-06  4.33917165e-05 -4.10383688e-05 
 1.90500000e-08  2.37476111e-06  4.33597807e-05 -4.09850196e-05 
 1.91500000e-08  2.40283944e-06  4.33346972e-05 -4.09318578e-05 
 1.92500000e-08  2.42431496e-06  4.33031965e-05 -4.08788816e-05 
 1.93500000e-08  2.45239700e-06  4.32784869e-05 -4.08260899e-05 
 1.94500000e-08  2.47392236e-06  4.32474033e-05 -4.07734809e-05 
 1.95500000e-08  2.50196559e-06  4.32230195e-05 -4.07210539e-05 
 1.96500000e-08  2.52352761e-06  4.31923348e-05 -4.06688072e-05 
 1.97500000e-08  2.55149900e-06  4.31682389e-05 -4.06167399e-05 
 1.98500000e-08  2.57308459e-06  4.31379352e-05 -4.05648507e-05 
 1.99500000e-08  2.60095828e-06  4.31140970e-05 -4.05131387e-05 
 2.00500000e-08  2.62255492e-06  4.30841576e-05 -4.04616027e-05 
 2.01500000e-08  2.65031061e-06  4.30605526e-05 -4.04102420e-05 
 2.02500000e-08  2.67190670e-06  4.30309620e-05 -4.03590553e-05 
 2.03500000e-08  2.69952830e-06  4.30075702e-05 -4.03080419e-05 
 2.04500000e-08  2.72111323e-06  4.29783141e-05 -4.02572009e-05 
 2.05500000e-08  2.74858802e-06  4.29551195e-05 -4.02065315e-05 
 2.06500000e-08  2.77015225e-06  4.29261849e-05 -4.01560327e-05 
 2.07500000e-08  2.79747013e-06  4.29031740e-05 -4.01057039e-05 
 2.08500000e-08  2.81900511e-06  4.28745493e-05 -4.00555442e-05 
 2.09500000e-08  2.84615806e-06  4.28517109e-05 -4.00055529e-05 
 2.10000000e-08  2.85553762e-06  4.28361577e-05 -3.99806201e-05 
 2.10100000e-08  2.86261714e-06  4.28382588e-05 -3.99756417e-05 
 2.10300000e-08  2.85825845e-06  4.28239404e-05 -3.99656819e-05 
 2.10700000e-08  2.87819062e-06  4.28239743e-05 -3.99457837e-05 
 2.11500000e-08  2.89001504e-06  4.27960894e-05 -3.99060743e-05 
 2.12500000e-08  2.92012096e-06  4.27767029e-05 -3.98565819e-05 
 2.13500000e-08  2.93943346e-06  4.27466922e-05 -3.98072587e-05 
 2.14500000e-08  2.96785702e-06  4.27259559e-05 -3.97580989e-05 
 2.15500000e-08  2.98758635e-06  4.26966900e-05 -3.97091037e-05 
 2.16500000e-08  3.02108481e-06  4.26813743e-05 -3.96602895e-05 
 2.17500000e-08  3.03373257e-06  4.26453651e-05 -3.96116326e-05 
 2.18500000e-08  3.01685773e-06  4.25798237e-05 -3.95629660e-05 
 2.19500000e-08  2.86830791e-06  4.23820643e-05 -3.95137564e-05 
 2.20000000e-08  2.50857375e-06  4.19968856e-05 -3.94883119e-05 
 2.20100000e-08  2.75061312e-06  4.22338783e-05 -3.94832652e-05 
 2.20300000e-08  3.87240476e-06  4.33463211e-05 -3.94739163e-05 
 2.20700000e-08  9.59700202e-06  4.90612935e-05 -3.94642915e-05 
 2.21500000e-08  2.25431451e-05  6.20376170e-05 -3.94944718e-05 
 2.22500000e-08  1.91298083e-05  5.86934407e-05 -3.95636324e-05 
 2.23500000e-08  1.11047209e-05  5.06994398e-05 -3.95947189e-05 
 2.24500000e-08  6.56881682e-06  4.61533805e-05 -3.95845637e-05 
 2.25500000e-08  4.23261040e-06  4.37913209e-05 -3.95587105e-05 
 2.26500000e-08  9.49209029e-07  4.04826327e-05 -3.95334237e-05 
 2.27500000e-08 -2.09070484e-06  3.74255217e-05 -3.95162265e-05 
 2.28500000e-08 -6.07429765e-06  3.34359420e-05 -3.95102397e-05 
 2.29500000e-08 -9.30289678e-06  3.02147494e-05 -3.95176462e-05 
 2.30500000e-08 -1.55712374e-05  2.39765189e-05 -3.95477562e-05 
 2.31500000e-08 -3.18248923e-05  7.82046614e-06 -3.96453585e-05 
 2.32500000e-08 -1.14480064e-05  2.82752920e-05 -3.97232983e-05 
 2.33500000e-08 -2.11237776e-06  3.75858937e-05 -3.96982714e-05 
 2.34500000e-08  7.70920409e-06  4.73158908e-05 -3.96066867e-05 
 2.35500000e-08  5.33483743e-06  4.48234593e-05 -3.94886219e-05 
 2.36500000e-08  9.35405593e-06  4.87181610e-05 -3.93641051e-05 
 2.37500000e-08  5.15914672e-06  4.43988532e-05 -3.92397065e-05 
 2.38500000e-08  8.60049264e-06  4.77181522e-05 -3.91176596e-05 
 2.39500000e-08  4.46949518e-06  4.34675009e-05 -3.89980057e-05 
 2.40500000e-08  7.90313374e-06  4.67840530e-05 -3.88809193e-05 
 2.41500000e-08  3.96545825e-06  4.27313570e-05 -3.87658987e-05 
 2.42500000e-08  7.39975733e-06  4.60527723e-05 -3.86530150e-05 
 2.43500000e-08  3.62986270e-06  4.21716561e-05 -3.85417934e-05 
 2.44500000e-08  7.04017664e-06  4.54725234e-05 -3.84323468e-05 
 2.45500000e-08  3.41274587e-06  4.17369977e-05 -3.83242519e-05 
 2.46500000e-08  6.78168168e-06  4.49993389e-05 -3.82176572e-05 
 2.47500000e-08  3.27907019e-06  4.13912489e-05 -3.81121787e-05 
 2.48500000e-08  6.59561418e-06  4.46036037e-05 -3.80079895e-05 
 2.49500000e-08  3.20539843e-06  4.11101334e-05 -3.79047350e-05 
 2.50500000e-08  6.46260551e-06  4.42652105e-05 -3.78026050e-05 
 2.51500000e-08  3.17569689e-06  4.08769647e-05 -3.77012678e-05 
 2.52500000e-08  6.36922229e-06  4.39701469e-05 -3.76009246e-05 
 2.53500000e-08  3.17871804e-06  4.06799801e-05 -3.75012620e-05 
 2.54500000e-08  6.30592346e-06  4.37084124e-05 -3.74024889e-05 
 2.55500000e-08  3.20639762e-06  4.05107046e-05 -3.73043069e-05 
 2.56500000e-08  6.26579186e-06  4.34727217e-05 -3.72069299e-05 
 2.57500000e-08  3.25284392e-06  4.03629159e-05 -3.71100720e-05 
 2.58500000e-08  6.24372228e-06  4.32576724e-05 -3.70139501e-05 
 2.59500000e-08  3.31368165e-06  4.02319707e-05 -3.69182891e-05 
 2.60000000e-08  6.20909608e-06  4.30798569e-05 -3.68707609e-05 
 2.60100000e-08  4.82540171e-06  4.16866318e-05 -3.68612301e-05 
 2.60300000e-08  4.75326859e-06  4.15955128e-05 -3.68422442e-05 
 2.60700000e-08  4.83338912e-06  4.16377309e-05 -3.68043417e-05 
 2.61500000e-08  4.77305321e-06  4.15018277e-05 -3.67287745e-05 
 2.62500000e-08  4.87062967e-06  4.15054132e-05 -3.66347835e-05 
 2.63500000e-08  4.81728012e-06  4.13585603e-05 -3.65412802e-05 
 2.64500000e-08  4.91826311e-06  4.13665177e-05 -3.64482546e-05 
 2.65500000e-08  4.86769875e-06  4.12233762e-05 -3.63556775e-05 
