 time            v(Vout+)        v(Vout-)        v(Vout+)-v(Vout-)
 0.00000000e+00  1.34613848e-10  3.83897051e-05 -3.83895705e-05 
 5.00000000e-13  1.45473605e-10  3.83897160e-05 -3.83895705e-05 
 1.00000000e-12  1.44509140e-10  3.83897150e-05 -3.83895705e-05 
 2.00000000e-12  1.41838330e-10  3.83897123e-05 -3.83895705e-05 
 4.00000000e-12  1.37303062e-10  3.83897078e-05 -3.83895705e-05 
 8.00000000e-12  1.33556232e-10  3.83897040e-05 -3.83895705e-05 
 1.60000000e-11  1.32277370e-10  3.83897028e-05 -3.83895705e-05 
 3.20000000e-11  1.34212175e-10  3.83897047e-05 -3.83895705e-05 
 6.40000000e-11  1.34768765e-10  3.83897052e-05 -3.83895705e-05 
 1.14000000e-10  1.34715696e-10  3.83897052e-05 -3.83895705e-05 
 1.64000000e-10  1.34604502e-10  3.83897051e-05 -3.83895705e-05 
 2.14000000e-10  1.34696206e-10  3.83897052e-05 -3.83895705e-05 
 2.64000000e-10  1.34566454e-10  3.83897050e-05 -3.83895705e-05 
 3.14000000e-10  1.34680631e-10  3.83897052e-05 -3.83895705e-05 
 3.64000000e-10  1.34545277e-10  3.83897050e-05 -3.83895705e-05 
 4.14000000e-10  1.34674025e-10  3.83897052e-05 -3.83895705e-05 
 4.64000000e-10  1.34541014e-10  3.83897050e-05 -3.83895705e-05 
 5.14000000e-10  1.34662818e-10  3.83897051e-05 -3.83895705e-05 
 5.64000000e-10  1.34524017e-10  3.83897050e-05 -3.83895705e-05 
 6.14000000e-10  1.34651822e-10  3.83897051e-05 -3.83895705e-05 
 6.64000000e-10  1.34525527e-10  3.83897050e-05 -3.83895705e-05 
 7.14000000e-10  1.34646771e-10  3.83897051e-05 -3.83895705e-05 
 7.64000000e-10  1.34517762e-10  3.83897050e-05 -3.83895705e-05 
 8.14000000e-10  1.34638054e-10  3.83897051e-05 -3.83895705e-05 
 8.64000000e-10  1.34518224e-10  3.83897050e-05 -3.83895705e-05 
 9.14000000e-10  1.34636972e-10  3.83897051e-05 -3.83895705e-05 
 9.64000000e-10  1.34514829e-10  3.83897050e-05 -3.83895705e-05 
 1.00000000e-09  1.34639652e-10  3.83897051e-05 -3.83895705e-05 
 1.00500000e-09  9.84278557e-09  3.83994181e-05 -3.83895753e-05 
 1.01500000e-09 -9.43651669e-09  3.83801388e-05 -3.83895753e-05 
 1.03500000e-09  1.50448349e-09  3.83910717e-05 -3.83895672e-05 
 1.07500000e-09  1.34025335e-11  3.83895831e-05 -3.83895697e-05 
 1.12500000e-09  5.85066677e-10  3.83901556e-05 -3.83895705e-05 
 1.17500000e-09 -3.14284091e-10  3.83892562e-05 -3.83895705e-05 
 1.22500000e-09  5.71515216e-10  3.83901420e-05 -3.83895705e-05 
 1.27500000e-09 -2.50960618e-10  3.83893197e-05 -3.83895706e-05 
 1.32500000e-09  6.06991235e-10  3.83901778e-05 -3.83895708e-05 
 1.37500000e-09  2.72517987e-10  3.83898449e-05 -3.83895724e-05 
 1.42500000e-09  1.77580344e-09  3.83913526e-05 -3.83895768e-05 
 1.47500000e-09 -6.00233586e-10  3.83889788e-05 -3.83895790e-05 
 1.52500000e-09 -1.38358700e-08  3.83757066e-05 -3.83895425e-05 
 1.57500000e-09  3.02790732e-08  3.84198619e-05 -3.83895828e-05 
 1.62500000e-09 -2.66973061e-08  3.83628934e-05 -3.83895907e-05 
 1.67500000e-09  3.68511512e-08  3.84264666e-05 -3.83896154e-05 
 1.72500000e-09 -4.25273892e-08  3.83470730e-05 -3.83896004e-05 
 1.77500000e-09  1.17057496e-08  3.84012295e-05 -3.83895237e-05 
 1.82500000e-09 -1.74782461e-08  3.83720304e-05 -3.83895086e-05 
 1.87500000e-09 -2.40147531e-08  3.83653905e-05 -3.83894052e-05 
 1.92500000e-09 -8.87429730e-08  3.83003823e-05 -3.83891253e-05 
 1.97500000e-09 -3.07680673e-07  3.80804622e-05 -3.83881429e-05 
 2.00000000e-09 -4.32802511e-07  3.79544235e-05 -3.83872260e-05 
 2.00500000e-09 -4.10521800e-07  3.79765010e-05 -3.83870228e-05 
 2.01500000e-09 -2.03954137e-07  3.81827653e-05 -3.83867195e-05 
 2.03500000e-09  8.34121806e-07  3.92214686e-05 -3.83873468e-05 
 2.07500000e-09  6.08406910e-06  4.44851264e-05 -3.84010573e-05 
 2.12500000e-09  1.52494979e-05  5.37033642e-05 -3.84538663e-05 
 2.17500000e-09  1.55607445e-05  5.40907603e-05 -3.85300158e-05 
 2.22500000e-09  7.77681812e-06  4.63642141e-05 -3.85873960e-05 
 2.27500000e-09  4.66648124e-06  4.32857310e-05 -3.86192497e-05 
 2.32500000e-09  1.62984570e-06  4.02753905e-05 -3.86455448e-05 
 2.37500000e-09 -1.63722705e-06  3.70392035e-05 -3.86764305e-05 
 2.42500000e-09 -5.77811131e-06  3.29378400e-05 -3.87159513e-05 
 2.47500000e-09 -9.50773939e-06  2.92583834e-05 -3.87661227e-05 
 2.52500000e-09 -1.48359871e-05  2.39956058e-05 -3.88315929e-05 
 2.57500000e-09 -2.83124288e-05  1.06257059e-05 -3.89381347e-05 
 2.62500000e-09 -7.69797581e-06  3.13245883e-05 -3.90225641e-05 
 2.67500000e-09 -4.10435923e-06  3.49392902e-05 -3.90436494e-05 
 2.72500000e-09  2.06052759e-06  4.10985315e-05 -3.90380039e-05 
 2.77500000e-09 -1.51745064e-06  3.75066823e-05 -3.90241330e-05 
 2.82500000e-09  2.36362147e-06  4.13718458e-05 -3.90082244e-05 
 2.87500000e-09 -1.39912673e-06  3.75919912e-05 -3.89911179e-05 
 2.92500000e-09  2.17340262e-06  4.11472476e-05 -3.89738450e-05 
 2.97500000e-09 -1.35925780e-06  3.75967667e-05 -3.89560245e-05 
 3.02500000e-09  1.99730539e-06  4.09356404e-05 -3.89383350e-05 
 3.07500000e-09 -1.30743122e-06  3.76128748e-05 -3.89203061e-05 
 3.12500000e-09  1.84412129e-06  4.07466517e-05 -3.89025304e-05 
 3.17500000e-09 -1.24749130e-06  3.76370323e-05 -3.88845236e-05 
 3.22500000e-09  1.70842038e-06  4.05752468e-05 -3.88668264e-05 
 3.27500000e-09 -1.18342706e-06  3.76655317e-05 -3.88489588e-05 
 3.32500000e-09  1.58650147e-06  4.04179246e-05 -3.88314231e-05 
 3.37500000e-09 -1.11762068e-06  3.76961313e-05 -3.88137520e-05 
 3.42500000e-09  1.47593699e-06  4.02723540e-05 -3.87964170e-05 
 3.47500000e-09 -1.05151247e-06  3.77274548e-05 -3.87789672e-05 
 3.52500000e-09  1.37504475e-06  4.01368931e-05 -3.87618483e-05 
 3.57500000e-09 -9.85989829e-07  3.77586376e-05 -3.87446274e-05 
 3.62500000e-09  1.28260019e-06  4.00103273e-05 -3.87277271e-05 
 3.67500000e-09 -9.21608460e-07  3.77891246e-05 -3.87107331e-05 
 3.72500000e-09  1.19766698e-06  3.98917140e-05 -3.86940470e-05 
 3.77500000e-09 -8.58711375e-07  3.78185619e-05 -3.86772733e-05 
 3.82500000e-09  1.11950549e-06  3.97802995e-05 -3.86607940e-05 
 3.87500000e-09 -7.97506846e-07  3.78467249e-05 -3.86442317e-05 
 3.92500000e-09  1.04750885e-06  3.96754590e-05 -3.86279501e-05 
 3.97500000e-09 -7.38118137e-07  3.78734714e-05 -3.86115895e-05 
 4.02500000e-09  9.81162324e-07  3.95766585e-05 -3.85954962e-05 
 4.07500000e-09 -6.80608949e-07  3.78987186e-05 -3.85793276e-05 
 4.12500000e-09  9.20021796e-07  3.94834352e-05 -3.85634134e-05 
 4.17500000e-09 -6.25004718e-07  3.79224226e-05 -3.85474273e-05 
 4.22500000e-09  8.63696409e-07  3.93953798e-05 -3.85316834e-05 
 4.27500000e-09 -5.71304281e-07  3.79445667e-05 -3.85158710e-05 
 4.32500000e-09  8.11837305e-07  3.93121265e-05 -3.85002892e-05 
 4.37500000e-09 -5.19488078e-07  3.79651541e-05 -3.84846422e-05 
 4.42500000e-09  7.64129947e-07  3.92333447e-05 -3.84692148e-05 
 4.47500000e-09 -4.69523584e-07  3.79842019e-05 -3.84537255e-05 
 4.52500000e-09  7.20288497e-07  3.91587340e-05 -3.84384455e-05 
 4.57500000e-09 -4.21369264e-07  3.80017377e-05 -3.84231070e-05 
 4.62500000e-09  6.80051651e-07  3.90880195e-05 -3.84079679e-05 
 4.67500000e-09 -3.74977255e-07  3.80177962e-05 -3.83927735e-05 
 4.72500000e-09  6.43179418e-07  3.90209488e-05 -3.83777694e-05 
 4.77500000e-09 -3.30295307e-07  3.80324178e-05 -3.83627131e-05 
 4.82500000e-09  6.09450644e-07  3.89572891e-05 -3.83478385e-05 
 4.87500000e-09 -2.87268269e-07  3.80456467e-05 -3.83329150e-05 
 4.92500000e-09  5.78660892e-07  3.88968256e-05 -3.83181648e-05 
 4.97500000e-09 -2.45839173e-07  3.80575296e-05 -3.83033688e-05 
 5.02500000e-09  5.50620734e-07  3.88393591e-05 -3.82887384e-05 
 5.07500000e-09 -2.05955381e-07  3.80681099e-05 -3.82740653e-05 
 5.12500000e-09  5.25156549e-07  3.87847070e-05 -3.82595504e-05 
 5.17500000e-09 -1.67547672e-07  3.80774482e-05 -3.82449959e-05 
 5.22500000e-09  5.02101162e-07  3.87326938e-05 -3.82305926e-05 
 5.27500000e-09 -1.30564127e-07  3.80855885e-05 -3.82161526e-05 
 5.32500000e-09  4.81304162e-07  3.86831615e-05 -3.82018573e-05 
 5.37500000e-09 -9.49476200e-08  3.80925805e-05 -3.81875281e-05 
 5.42500000e-09  4.62622085e-07  3.86359595e-05 -3.81733374e-05 
 5.47500000e-09 -6.06402708e-08  3.80984753e-05 -3.81591156e-05 
 5.52500000e-09  4.45923373e-07  3.85909497e-05 -3.81450263e-05 
 5.57500000e-09 -2.75872894e-08  3.81033213e-05 -3.81309086e-05 
 5.62500000e-09  4.31083988e-07  3.85480019e-05 -3.81169179e-05 
 5.67500000e-09  4.26545015e-09  3.81071669e-05 -3.81029014e-05 
 5.72500000e-09  4.17988063e-07  3.85069946e-05 -3.80890066e-05 
 5.77500000e-09  3.49705937e-08  3.81100591e-05 -3.80750885e-05 
 5.82500000e-09  4.06527108e-07  3.84678141e-05 -3.80612870e-05 
 5.87500000e-09  6.45792515e-08  3.81120441e-05 -3.80474648e-05 
 5.92500000e-09  3.96599451e-07  3.84303538e-05 -3.80337544e-05 
 5.97500000e-09  9.31408843e-08  3.81131664e-05 -3.80200255e-05 
 6.00000000e-09  3.76944295e-07  3.83901684e-05 -3.80132241e-05 
 6.00500000e-09  2.52031420e-07  3.82638703e-05 -3.80118389e-05 
 6.01500000e-09  2.38917606e-07  3.82480240e-05 -3.80091064e-05 
 6.03500000e-09  2.65866213e-07  3.82695332e-05 -3.80036670e-05 
 6.07500000e-09  2.36476703e-07  3.82292609e-05 -3.79927842e-05 
 6.12500000e-09  2.72678160e-07  3.82518994e-05 -3.79792212e-05 
 6.17500000e-09  2.48150774e-07  3.82138509e-05 -3.79657002e-05 
 6.22500000e-09  2.81679973e-07  3.82339046e-05 -3.79522246e-05 
 6.27500000e-09  2.59591302e-07  3.81983806e-05 -3.79387893e-05 
 6.32500000e-09  2.90901687e-07  3.82163002e-05 -3.79253985e-05 
 6.37500000e-09  2.70994994e-07  3.81830420e-05 -3.79120470e-05 
 6.42500000e-09  2.99942097e-07  3.81986799e-05 -3.78987379e-05 
 6.47500000e-09  2.81315722e-07  3.81667790e-05 -3.78854632e-05 
 6.52500000e-09  3.08070746e-07  3.81802971e-05 -3.78722263e-05 
 6.57500000e-09  2.94877414e-07  3.81539106e-05 -3.78590332e-05 
 6.62500000e-09  3.17868725e-07  3.81637526e-05 -3.78458838e-05 
 6.67500000e-09  3.06695777e-07  3.81394691e-05 -3.78327733e-05 
 6.72500000e-09  3.28609180e-07  3.81483159e-05 -3.78197067e-05 
 6.77500000e-09  3.18341625e-07  3.81250192e-05 -3.78066775e-05 
 6.82500000e-09  3.38638777e-07  3.81323273e-05 -3.77936885e-05 
 6.87500000e-09  3.29825433e-07  3.81105604e-05 -3.77807350e-05 
 6.92500000e-09  3.49032321e-07  3.81168538e-05 -3.77678215e-05 
 6.97500000e-09  3.41196488e-07  3.80961392e-05 -3.77549427e-05 
 7.00000000e-09  3.55529950e-07  3.81040474e-05 -3.77485175e-05 
 7.00500000e-09  3.59942561e-07  3.81071800e-05 -3.77472374e-05 
 7.01500000e-09  3.42545794e-07  3.80872159e-05 -3.77446701e-05 
 7.03500000e-09  3.56259967e-07  3.80957934e-05 -3.77395335e-05 
 7.07500000e-09  3.57195863e-07  3.80864892e-05 -3.77292933e-05 
 7.12500000e-09  3.65514735e-07  3.80820395e-05 -3.77165247e-05 
 7.17500000e-09  3.68030886e-07  3.80718229e-05 -3.77037920e-05 
 7.22500000e-09  3.76551435e-07  3.80676469e-05 -3.76910955e-05 
 7.27500000e-09  3.79132342e-07  3.80575670e-05 -3.76784347e-05 
 7.32500000e-09  3.87568684e-07  3.80533781e-05 -3.76658094e-05 
 7.37500000e-09  3.90275764e-07  3.80434951e-05 -3.76532193e-05 
 7.42500000e-09  3.98632876e-07  3.80392972e-05 -3.76406643e-05 
 7.47500000e-09  4.01442166e-07  3.80295863e-05 -3.76281442e-05 
 7.52500000e-09  4.09733507e-07  3.80253922e-05 -3.76156586e-05 
 7.57500000e-09  4.12626554e-07  3.80158341e-05 -3.76032075e-05 
 7.62500000e-09  4.20859927e-07  3.80116505e-05 -3.75907906e-05 
 7.67500000e-09  4.23825043e-07  3.80022327e-05 -3.75784076e-05 
 7.72500000e-09  4.32004199e-07  3.79980627e-05 -3.75660585e-05 
 7.77500000e-09  4.35033318e-07  3.79887763e-05 -3.75537430e-05 
 7.82500000e-09  4.43160211e-07  3.79846212e-05 -3.75414610e-05 
 7.87500000e-09  4.46247042e-07  3.79754592e-05 -3.75292121e-05 
 7.92500000e-09  4.54322809e-07  3.79713192e-05 -3.75169964e-05 
 7.97500000e-09  4.57462036e-07  3.79622755e-05 -3.75048135e-05 
 8.02500000e-09  4.65487573e-07  3.79581509e-05 -3.74926633e-05 
 8.07500000e-09  4.68674396e-07  3.79492201e-05 -3.74805457e-05 
 8.12500000e-09  4.76650471e-07  3.79451109e-05 -3.74684604e-05 
 8.17500000e-09  4.79880500e-07  3.79362879e-05 -3.74564074e-05 
 8.22500000e-09  4.87807874e-07  3.79321943e-05 -3.74443864e-05 
 8.27500000e-09  4.91077031e-07  3.79234744e-05 -3.74323973e-05 
 8.32500000e-09  4.98956422e-07  3.79193964e-05 -3.74204400e-05 
 8.37500000e-09  5.02260929e-07  3.79107752e-05 -3.74085143e-05 
 8.42500000e-09  5.10093101e-07  3.79067131e-05 -3.73966200e-05 
 8.47500000e-09  5.13429390e-07  3.78981864e-05 -3.73847570e-05 
 8.52500000e-09  5.21215069e-07  3.78941403e-05 -3.73729252e-05 
 8.57500000e-09  5.24579785e-07  3.78857042e-05 -3.73611244e-05 
 8.62500000e-09  5.32319719e-07  3.78816743e-05 -3.73493545e-05 
 8.67500000e-09  5.35709771e-07  3.78733252e-05 -3.73376154e-05 
 8.72500000e-09  5.43404694e-07  3.78693116e-05 -3.73259069e-05 
 8.77500000e-09  5.46817126e-07  3.78610461e-05 -3.73142289e-05 
 8.82500000e-09  5.54467737e-07  3.78570491e-05 -3.73025813e-05 
 8.87500000e-09  5.57899818e-07  3.78488638e-05 -3.72909640e-05 
 8.92500000e-09  5.65506825e-07  3.78448836e-05 -3.72793767e-05 
 8.97500000e-09  5.68955993e-07  3.78367755e-05 -3.72678195e-05 
 9.02500000e-09  5.76520092e-07  3.78328123e-05 -3.72562922e-05 
 9.07500000e-09  5.79983917e-07  3.78247786e-05 -3.72447947e-05 
 9.12500000e-09  5.87505784e-07  3.78208326e-05 -3.72333268e-05 
 9.17500000e-09  5.90982013e-07  3.78128705e-05 -3.72218885e-05 
 9.22500000e-09  5.98462326e-07  3.78089419e-05 -3.72104796e-05 
 9.27500000e-09  6.01948846e-07  3.78010489e-05 -3.71991000e-05 
 9.32500000e-09  6.09388246e-07  3.77971380e-05 -3.71877497e-05 
 9.37500000e-09  6.12883039e-07  3.77893115e-05 -3.71764285e-05 
 9.42500000e-09  6.20282175e-07  3.77854185e-05 -3.71651363e-05 
 9.47500000e-09  6.23783383e-07  3.77776564e-05 -3.71538730e-05 
 9.52500000e-09  6.31142868e-07  3.77737815e-05 -3.71426386e-05 
 9.57500000e-09  6.34648755e-07  3.77660816e-05 -3.71314328e-05 
 9.62500000e-09  6.41969179e-07  3.77622249e-05 -3.71202557e-05 
 9.67500000e-09  6.45478101e-07  3.77545852e-05 -3.71091071e-05 
 9.72500000e-09  6.52760062e-07  3.77507470e-05 -3.70979869e-05 
 9.77500000e-09  6.56270477e-07  3.77431655e-05 -3.70868951e-05 
 9.82500000e-09  6.63514541e-07  3.77393460e-05 -3.70758314e-05 
 9.87500000e-09  6.67025014e-07  3.77318209e-05 -3.70647959e-05 
 9.92500000e-09  6.74231732e-07  3.77280202e-05 -3.70537885e-05 
 9.97500000e-09  6.77740911e-07  3.77205499e-05 -3.70428090e-05 
 1.00250000e-08  6.84910816e-07  3.77167682e-05 -3.70318574e-05 
 1.00750000e-08  6.88417424e-07  3.77093510e-05 -3.70209336e-05 
 1.01250000e-08  6.95551061e-07  3.77055885e-05 -3.70100374e-05 
 1.01750000e-08  6.99053924e-07  3.76982228e-05 -3.69991689e-05 
 1.02250000e-08  7.06151771e-07  3.76944796e-05 -3.69883279e-05 
 1.02750000e-08  7.09649782e-07  3.76871641e-05 -3.69775143e-05 
 1.03250000e-08  7.16712334e-07  3.76834404e-05 -3.69667281e-05 
 1.03750000e-08  7.20204443e-07  3.76761735e-05 -3.69559691e-05 
 1.04250000e-08  7.27232188e-07  3.76724695e-05 -3.69452373e-05 
 1.04750000e-08  7.30717410e-07  3.76652501e-05 -3.69345326e-05 
 1.05250000e-08  7.37710810e-07  3.76615658e-05 -3.69238550e-05 
 1.05750000e-08  7.41188257e-07  3.76543926e-05 -3.69132043e-05 
 1.06250000e-08  7.48147731e-07  3.76507282e-05 -3.69025805e-05 
 1.06750000e-08  7.51616539e-07  3.76435999e-05 -3.68919834e-05 
 1.07250000e-08  7.58542547e-07  3.76399556e-05 -3.68814131e-05 
 1.07750000e-08  7.62001921e-07  3.76328713e-05 -3.68708693e-05 
 1.08250000e-08  7.68894875e-07  3.76292471e-05 -3.68603522e-05 
 1.08750000e-08  7.72344052e-07  3.76222055e-05 -3.68498615e-05 
 1.09250000e-08  7.79204353e-07  3.76186016e-05 -3.68393972e-05 
 1.09750000e-08  7.82642665e-07  3.76116019e-05 -3.68289592e-05 
 1.10000000e-08  7.86904376e-07  3.76106545e-05 -3.68237501e-05 
 1.10050000e-08  7.95236406e-07  3.76179500e-05 -3.68227136e-05 
 1.10150000e-08  7.79103062e-07  3.75997354e-05 -3.68206323e-05 
 1.10350000e-08  7.91007980e-07  3.76074738e-05 -3.68164658e-05 
 1.10750000e-08  7.93444032e-07  3.76016056e-05 -3.68081616e-05 
 1.11250000e-08  7.99395024e-07  3.75971977e-05 -3.67978027e-05 
 1.11750000e-08  8.03386838e-07  3.75908561e-05 -3.67874693e-05 
 1.12250000e-08  8.09606683e-07  3.75867685e-05 -3.67771618e-05 
 1.12750000e-08  8.13577704e-07  3.75804581e-05 -3.67668804e-05 
 1.13250000e-08  8.19784618e-07  3.75764094e-05 -3.67566248e-05 
 1.13750000e-08  8.23904061e-07  3.75702996e-05 -3.67463955e-05 
 1.14250000e-08  8.30020360e-07  3.75662126e-05 -3.67361922e-05 
 1.14750000e-08  8.34122755e-07  3.75601377e-05 -3.67260149e-05 
 1.15250000e-08  8.37852053e-07  3.75537097e-05 -3.67158577e-05 
 1.15750000e-08  8.47793380e-07  3.75535284e-05 -3.67057350e-05 
 1.16250000e-08  8.51498217e-07  3.75471448e-05 -3.66956466e-05 
 1.16750000e-08  8.73803555e-07  3.75594269e-05 -3.66856234e-05 
 1.17250000e-08  8.36624491e-07  3.75121879e-05 -3.66755634e-05 
 1.17750000e-08  8.46028620e-07  3.75114641e-05 -3.66654354e-05 
 1.18250000e-08  8.50284222e-07  3.75056261e-05 -3.66553418e-05 
 1.18750000e-08  8.32312456e-07  3.74775272e-05 -3.66452147e-05 
 1.19250000e-08  7.50350305e-07  3.73851904e-05 -3.66348401e-05 
 1.19750000e-08  4.88188462e-07  3.71118005e-05 -3.66236120e-05 
 1.20000000e-08  3.15543446e-07  3.69330025e-05 -3.66174591e-05 
 1.20050000e-08  3.36685097e-07  3.69528816e-05 -3.66161965e-05 
 1.20150000e-08  5.08456864e-07  3.71222141e-05 -3.66137572e-05 
 1.20350000e-08  1.54678400e-06  3.81568667e-05 -3.66100827e-05 
 1.20750000e-08  6.63560588e-06  4.32505093e-05 -3.66149035e-05 
 1.21250000e-08  1.59540461e-05  5.26107124e-05 -3.66566663e-05 
 1.21750000e-08  1.94694278e-05  5.61996433e-05 -3.67302155e-05 
 1.22250000e-08  1.73042353e-05  5.41112955e-05 -3.68070602e-05 
 1.22750000e-08  1.31958824e-05  5.00641636e-05 -3.68682812e-05 
 1.23250000e-08  9.40873783e-06  4.63185684e-05 -3.69098306e-05 
 1.23750000e-08  6.40058974e-06  4.33350852e-05 -3.69344955e-05 
 1.24250000e-08  4.88310133e-06  4.18317544e-05 -3.69486531e-05 
 1.24750000e-08  3.26101783e-06  4.02193498e-05 -3.69583320e-05 
 1.25250000e-08  1.87665717e-06  3.88442587e-05 -3.69676016e-05 
 1.25750000e-08  2.89600302e-10  3.69791753e-05 -3.69788857e-05 
 1.26250000e-08 -1.67375812e-06  3.53198130e-05 -3.69935711e-05 
 1.26750000e-08 -3.82514335e-06  3.31873374e-05 -3.70124807e-05 
 1.27250000e-08 -5.70964900e-06  3.13266530e-05 -3.70363020e-05 
 1.27750000e-08 -7.95468277e-06  2.91108991e-05 -3.70655818e-05 
 1.28250000e-08 -9.84039837e-06  2.72603156e-05 -3.71007139e-05 
 1.28750000e-08 -1.22394075e-05  2.49031106e-05 -3.71425180e-05 
 1.29250000e-08 -1.59001905e-05  2.12956455e-05 -3.71958360e-05 
 1.29750000e-08 -2.57346478e-05  1.15448934e-05 -3.72795412e-05 
 1.30250000e-08 -2.86562085e-05  8.73574198e-06 -3.73919504e-05 
 1.30750000e-08 -1.88268711e-05  1.86576412e-05 -3.74845123e-05 
 1.31250000e-08 -1.17824161e-05  2.57504580e-05 -3.75328741e-05 
 1.31750000e-08 -4.14406501e-06  3.33987816e-05 -3.75428466e-05 
 1.32250000e-08 -1.68059346e-06  3.58456217e-05 -3.75262151e-05 
 1.32750000e-08  1.81333827e-06  3.93069348e-05 -3.74935965e-05 
 1.33250000e-08  1.64242750e-06  3.90942514e-05 -3.74518239e-05 
 1.33750000e-08  3.41108222e-06  4.08164659e-05 -3.74053837e-05 
 1.34250000e-08  2.42686038e-06  3.97833358e-05 -3.73564754e-05 
 1.34750000e-08  3.62682424e-06  4.09334566e-05 -3.73066324e-05 
 1.35250000e-08  2.48946569e-06  3.97458135e-05 -3.72563478e-05 
 1.35750000e-08  3.48783885e-06  4.06940380e-05 -3.72061991e-05 
 1.36250000e-08  2.38104751e-06  3.95372329e-05 -3.71561854e-05 
 1.36750000e-08  3.28126065e-06  4.03878625e-05 -3.71066018e-05 
 1.37250000e-08  2.24993443e-06  3.93072469e-05 -3.70573125e-05 
 1.37750000e-08  3.08045969e-06  4.00889866e-05 -3.70085269e-05 
 1.38250000e-08  2.13136655e-06  3.90914427e-05 -3.69600762e-05 
 1.38750000e-08  2.90106627e-06  3.98132045e-05 -3.69121382e-05 
 1.39250000e-08  2.03152211e-06  3.88960615e-05 -3.68645394e-05 
 1.39750000e-08  2.74436131e-06  3.95618029e-05 -3.68174416e-05 
 1.40250000e-08  1.94968875e-06  3.87203630e-05 -3.67706743e-05 
