 time            v(Vout+)        v(Vout-)        v(Vout+)-v(Vout-)
 0.00000000e+00  1.34465161e-10  3.59206341e-05 -3.59204996e-05 
 5.00000000e-13  1.44522676e-10  3.59206441e-05 -3.59204996e-05 
 1.00000000e-12  1.43653055e-10  3.59206432e-05 -3.59204996e-05 
 2.00000000e-12  1.41129726e-10  3.59206407e-05 -3.59204996e-05 
 4.00000000e-12  1.37004153e-10  3.59206366e-05 -3.59204996e-05 
 8.00000000e-12  1.33496471e-10  3.59206331e-05 -3.59204996e-05 
 1.60000000e-11  1.32330894e-10  3.59206319e-05 -3.59204996e-05 
 3.20000000e-11  1.34062548e-10  3.59206337e-05 -3.59204996e-05 
 6.40000000e-11  1.34630984e-10  3.59206342e-05 -3.59204996e-05 
 1.14000000e-10  1.34533236e-10  3.59206341e-05 -3.59204996e-05 
 1.64000000e-10  1.34467506e-10  3.59206341e-05 -3.59204996e-05 
 2.14000000e-10  1.34521852e-10  3.59206341e-05 -3.59204996e-05 
 2.64000000e-10  1.34440961e-10  3.59206340e-05 -3.59204996e-05 
 3.14000000e-10  1.34514859e-10  3.59206341e-05 -3.59204996e-05 
 3.64000000e-10  1.34429093e-10  3.59206340e-05 -3.59204996e-05 
 4.14000000e-10  1.34500734e-10  3.59206341e-05 -3.59204996e-05 
 4.64000000e-10  1.34419815e-10  3.59206340e-05 -3.59204996e-05 
 5.14000000e-10  1.34493251e-10  3.59206341e-05 -3.59204996e-05 
 5.64000000e-10  1.34405369e-10  3.59206340e-05 -3.59204996e-05 
 6.14000000e-10  1.34486290e-10  3.59206341e-05 -3.59204996e-05 
 6.64000000e-10  1.34413842e-10  3.59206340e-05 -3.59204996e-05 
 7.14000000e-10  1.34473052e-10  3.59206341e-05 -3.59204996e-05 
 7.64000000e-10  1.34401317e-10  3.59206340e-05 -3.59204996e-05 
 8.14000000e-10  1.34468666e-10  3.59206341e-05 -3.59204996e-05 
 8.64000000e-10  1.34393707e-10  3.59206340e-05 -3.59204996e-05 
 9.14000000e-10  1.34452920e-10  3.59206340e-05 -3.59204996e-05 
 9.64000000e-10  1.34389268e-10  3.59206340e-05 -3.59204996e-05 
 1.00000000e-09  1.34472622e-10  3.59206341e-05 -3.59204996e-05 
 1.00500000e-09  9.84585783e-09  3.59303503e-05 -3.59205045e-05 
 1.01500000e-09 -9.41746408e-09  3.59110870e-05 -3.59205044e-05 
 1.03500000e-09  1.49417034e-09  3.59219905e-05 -3.59204964e-05 
 1.07500000e-09  1.31006718e-11  3.59205119e-05 -3.59204988e-05 
 1.12500000e-09  5.85711236e-10  3.59210853e-05 -3.59204996e-05 
 1.17500000e-09 -3.19843846e-10  3.59201798e-05 -3.59204996e-05 
 1.22500000e-09  5.82949345e-10  3.59210826e-05 -3.59204996e-05 
 1.27500000e-09 -2.57609327e-10  3.59202422e-05 -3.59204998e-05 
 1.32500000e-09  6.62295365e-10  3.59211624e-05 -3.59205001e-05 
 1.37500000e-09  3.11036843e-10  3.59208129e-05 -3.59205018e-05 
 1.42500000e-09  1.61890792e-09  3.59221249e-05 -3.59205060e-05 
 1.47500000e-09 -7.82029215e-10  3.59197253e-05 -3.59205074e-05 
 1.52500000e-09 -1.38231274e-08  3.59066473e-05 -3.59204704e-05 
 1.57500000e-09  3.04346386e-08  3.59509458e-05 -3.59205112e-05 
 1.62500000e-09 -2.71246071e-08  3.58933938e-05 -3.59205184e-05 
 1.67500000e-09  3.89362310e-08  3.59594835e-05 -3.59205472e-05 
 1.72500000e-09 -4.29995820e-08  3.58775366e-05 -3.59205362e-05 
 1.77500000e-09  7.87141671e-09  3.59283203e-05 -3.59204489e-05 
 1.82500000e-09 -2.08990703e-08  3.58995167e-05 -3.59204158e-05 
 1.87500000e-09 -2.96284891e-08  3.58906615e-05 -3.59202900e-05 
 1.92500000e-09 -9.42207338e-08  3.58257619e-05 -3.59199826e-05 
 1.97500000e-09 -3.26205662e-07  3.55927349e-05 -3.59189406e-05 
 2.00000000e-09 -4.80839341e-07  3.54371018e-05 -3.59179411e-05 
 2.00500000e-09 -4.97944826e-07  3.54197497e-05 -3.59176945e-05 
 2.01500000e-09 -3.79887947e-07  3.55373724e-05 -3.59172604e-05 
 2.03500000e-09  5.08634821e-07  3.64260256e-05 -3.59173908e-05 
 2.07500000e-09  5.66404458e-06  4.15936706e-05 -3.59296260e-05 
 2.12500000e-09  1.40413969e-05  5.00198036e-05 -3.59784067e-05 
 2.17500000e-09  1.39249670e-05  4.99725142e-05 -3.60475472e-05 
 2.22500000e-09  8.01394430e-06  4.41155344e-05 -3.61015901e-05 
 2.27500000e-09  4.58063663e-06  4.07132188e-05 -3.61325822e-05 
 2.32500000e-09  2.88694200e-06  3.90416831e-05 -3.61547411e-05 
 2.37500000e-09  2.21831782e-07  3.63996976e-05 -3.61778658e-05 
 2.42500000e-09 -2.44049114e-06  3.37667047e-05 -3.62071958e-05 
 2.47500000e-09 -6.00728997e-06  3.02378822e-05 -3.62451722e-05 
 2.52500000e-09 -9.09995290e-06  2.71932813e-05 -3.62932342e-05 
 2.57500000e-09 -1.40678337e-05  2.22879098e-05 -3.63557435e-05 
 2.62500000e-09 -2.61858507e-05  1.02702505e-05 -3.64561013e-05 
 2.67500000e-09 -8.29356172e-06  2.82447469e-05 -3.65383087e-05 
 2.72500000e-09 -3.76869748e-06  3.27932928e-05 -3.65619903e-05 
 2.77500000e-09  1.41474009e-06  3.79739505e-05 -3.65592104e-05 
 2.82500000e-09 -1.05416641e-06  3.54937848e-05 -3.65479512e-05 
 2.87500000e-09  1.81898760e-06  3.83533443e-05 -3.65343567e-05 
 2.92500000e-09 -9.38682092e-07  3.55808523e-05 -3.65195344e-05 
 2.97500000e-09  1.66336759e-06  3.81677349e-05 -3.65043673e-05 
 3.02500000e-09 -9.20682338e-07  3.55679708e-05 -3.64886532e-05 
 3.07500000e-09  1.51474698e-06  3.79876560e-05 -3.64729090e-05 
 3.12500000e-09 -8.90628568e-07  3.55662036e-05 -3.64568321e-05 
 3.17500000e-09  1.38701425e-06  3.78278780e-05 -3.64408638e-05 
 3.22500000e-09 -8.51443478e-07  3.55732371e-05 -3.64246805e-05 
 3.27500000e-09  1.27519896e-06  3.76838777e-05 -3.64086788e-05 
 3.32500000e-09 -8.07035052e-07  3.55854964e-05 -3.63925314e-05 
 3.37500000e-09  1.17571818e-06  3.75523211e-05 -3.63766029e-05 
 3.42500000e-09 -7.59852588e-07  3.56007178e-05 -3.63605704e-05 
 3.47500000e-09  1.08620667e-06  3.74309803e-05 -3.63447737e-05 
 3.52500000e-09 -7.11419713e-07  3.56174787e-05 -3.63288984e-05 
 3.57500000e-09  1.00503220e-06  3.73182961e-05 -3.63132639e-05 
 3.62500000e-09 -6.62705339e-07  3.56348613e-05 -3.62975666e-05 
 3.67500000e-09  9.31018982e-07  3.72131274e-05 -3.62821084e-05 
 3.72500000e-09 -6.14333128e-07  3.56522642e-05 -3.62665974e-05 
 3.77500000e-09  8.63284852e-07  3.71146046e-05 -3.62513197e-05 
 3.82500000e-09 -5.66704426e-07  3.56692914e-05 -3.62359958e-05 
 3.87500000e-09  8.01147462e-07  3.70220452e-05 -3.62208977e-05 
 3.92500000e-09 -5.20075914e-07  3.56856819e-05 -3.62057578e-05 
 3.97500000e-09  7.44059803e-07  3.69348948e-05 -3.61908350e-05 
 4.02500000e-09 -4.74610776e-07  3.57012629e-05 -3.61758736e-05 
 4.07500000e-09  6.91570182e-07  3.68526906e-05 -3.61611204e-05 
 4.12500000e-09 -4.30405552e-07  3.57159256e-05 -3.61463312e-05 
 4.17500000e-09  6.43297734e-07  3.67750387e-05 -3.61317410e-05 
 4.22500000e-09 -3.87513499e-07  3.57296035e-05 -3.61171170e-05 
 4.27500000e-09  5.98913094e-07  3.67015963e-05 -3.61026832e-05 
 4.32500000e-09 -3.45958074e-07  3.57422595e-05 -3.60882176e-05 
 4.37500000e-09  5.58126735e-07  3.66320604e-05 -3.60739337e-05 
 4.42500000e-09 -3.05742226e-07  3.57538775e-05 -3.60596197e-05 
 4.47500000e-09  5.20680695e-07  3.65661600e-05 -3.60454793e-05 
 4.52500000e-09 -2.66854626e-07  3.57644561e-05 -3.60313107e-05 
 4.57500000e-09  4.86342617e-07  3.65036505e-05 -3.60173079e-05 
 4.62500000e-09 -2.29273984e-07  3.57740046e-05 -3.60032785e-05 
 4.67500000e-09  4.54901400e-07  3.64443091e-05 -3.59894077e-05 
 4.72500000e-09 -1.92972104e-07  3.57825400e-05 -3.59755121e-05 
 4.77500000e-09  4.26164028e-07  3.63879319e-05 -3.59617679e-05 
 4.82500000e-09 -1.57915974e-07  3.57900848e-05 -3.59480008e-05 
 4.87500000e-09  3.99953065e-07  3.63343316e-05 -3.59343785e-05 
 4.92500000e-09 -1.24069299e-07  3.57966656e-05 -3.59207349e-05 
 4.97500000e-09  3.76104848e-07  3.62833348e-05 -3.59072300e-05 
 5.02500000e-09 -9.13936262e-08  3.58023118e-05 -3.58937055e-05 
 5.07500000e-09  3.54467877e-07  3.62347816e-05 -3.58803137e-05 
 5.12500000e-09 -5.98492221e-08  3.58070548e-05 -3.58669040e-05 
 5.17500000e-09  3.34901562e-07  3.61885231e-05 -3.58536215e-05 
 5.22500000e-09 -2.93956069e-08  3.58109271e-05 -3.58403227e-05 
 5.27500000e-09  3.17275219e-07  3.61444211e-05 -3.58271459e-05 
 5.32500000e-09  7.90810753e-12  3.58139623e-05 -3.58139544e-05 
 5.37500000e-09  3.01467093e-07  3.61023468e-05 -3.58008798e-05 
 5.42500000e-09  2.84018430e-08  3.58161939e-05 -3.57877921e-05 
 5.47500000e-09  2.87363639e-07  3.60621803e-05 -3.57748166e-05 
 5.52500000e-09  5.58263758e-08  3.58176561e-05 -3.57618297e-05 
 5.57500000e-09  2.74858839e-07  3.60238093e-05 -3.57489504e-05 
 5.62500000e-09  8.23209650e-08  3.58183822e-05 -3.57360612e-05 
 5.67500000e-09  2.63853518e-07  3.59871290e-05 -3.57232755e-05 
 5.72500000e-09  1.07924372e-07  3.58184056e-05 -3.57104813e-05 
 5.77500000e-09  2.54254922e-07  3.59520414e-05 -3.56977864e-05 
 5.82500000e-09  1.32674341e-07  3.58177590e-05 -3.56850846e-05 
 5.87500000e-09  2.45976147e-07  3.59184545e-05 -3.56724784e-05 
 5.92500000e-09  1.56607717e-07  3.58164743e-05 -3.56598665e-05 
 5.97500000e-09  2.38935752e-07  3.58862824e-05 -3.56473466e-05 
 6.00000000e-09  1.84704520e-07  3.58257724e-05 -3.56410679e-05 
 6.00500000e-09  1.76817565e-07  3.58166397e-05 -3.56398221e-05 
 6.01500000e-09  2.29399359e-07  3.58667222e-05 -3.56373229e-05 
 6.03500000e-09  1.98269343e-07  3.58306101e-05 -3.56323408e-05 
 6.07500000e-09  2.22507098e-07  3.58448871e-05 -3.56223800e-05 
 6.12500000e-09  2.05851974e-07  3.58158137e-05 -3.56099618e-05 
 6.17500000e-09  2.30977572e-07  3.58285662e-05 -3.55975886e-05 
 6.22500000e-09  2.15167335e-07  3.58004212e-05 -3.55852539e-05 
 6.27500000e-09  2.39301064e-07  3.58122635e-05 -3.55729624e-05 
 6.32500000e-09  2.24608930e-07  3.57853176e-05 -3.55607087e-05 
 6.37500000e-09  2.47704440e-07  3.57962013e-05 -3.55484969e-05 
 6.42500000e-09  2.33864394e-07  3.57701855e-05 -3.55363211e-05 
 6.47500000e-09  2.55295507e-07  3.57794785e-05 -3.55241830e-05 
 6.52500000e-09  2.41970174e-07  3.57540462e-05 -3.55120760e-05 
 6.57500000e-09  2.65631937e-07  3.57656457e-05 -3.55000138e-05 
 6.62500000e-09  2.51919645e-07  3.57399089e-05 -3.54879892e-05 
 6.67500000e-09  2.74699808e-07  3.57507055e-05 -3.54760057e-05 
 6.72500000e-09  2.62701214e-07  3.57267616e-05 -3.54640604e-05 
 6.77500000e-09  2.83509501e-07  3.57356635e-05 -3.54521540e-05 
 6.82500000e-09  2.72798971e-07  3.57130815e-05 -3.54402825e-05 
 6.87500000e-09  2.92362888e-07  3.57208111e-05 -3.54284482e-05 
 6.92500000e-09  2.83212957e-07  3.56998620e-05 -3.54166491e-05 
 6.97500000e-09  3.00623064e-07  3.57055074e-05 -3.54048843e-05 
 7.00000000e-09  2.90571667e-07  3.56895847e-05 -3.53990130e-05 
 7.00500000e-09  3.05622339e-07  3.57034673e-05 -3.53978450e-05 
 7.01500000e-09  2.89794191e-07  3.56852942e-05 -3.53955000e-05 
 7.03500000e-09  3.01581707e-07  3.56923891e-05 -3.53908074e-05 
 7.07500000e-09  3.03605287e-07  3.56850601e-05 -3.53814549e-05 
 7.12500000e-09  3.09655729e-07  3.56794494e-05 -3.53697936e-05 
 7.17500000e-09  3.13023069e-07  3.56711894e-05 -3.53581663e-05 
 7.22500000e-09  3.19398833e-07  3.56659718e-05 -3.53465730e-05 
 7.27500000e-09  3.22738829e-07  3.56577522e-05 -3.53350134e-05 
 7.32500000e-09  3.29136209e-07  3.56526234e-05 -3.53234872e-05 
 7.37500000e-09  3.32514704e-07  3.56445089e-05 -3.53119942e-05 
 7.42500000e-09  3.38927412e-07  3.56394616e-05 -3.53005341e-05 
 7.47500000e-09  3.42327419e-07  3.56314344e-05 -3.52891069e-05 
 7.52500000e-09  3.48762509e-07  3.56264746e-05 -3.52777121e-05 
 7.57500000e-09  3.52171947e-07  3.56185217e-05 -3.52663498e-05 
 7.62500000e-09  3.58631540e-07  3.56136510e-05 -3.52550194e-05 
 7.67500000e-09  3.62044027e-07  3.56057651e-05 -3.52437211e-05 
 7.72500000e-09  3.68526987e-07  3.56009813e-05 -3.52324543e-05 
 7.77500000e-09  3.71938988e-07  3.55931582e-05 -3.52212192e-05 
 7.82500000e-09  3.78442947e-07  3.55884582e-05 -3.52100153e-05 
 7.87500000e-09  3.81852248e-07  3.55806948e-05 -3.51988426e-05 
 7.92500000e-09  3.88374434e-07  3.55760752e-05 -3.51877007e-05 
 7.97500000e-09  3.91779402e-07  3.55683691e-05 -3.51765897e-05 
 8.02500000e-09  3.98317009e-07  3.55638262e-05 -3.51655092e-05 
 8.07500000e-09  4.01716365e-07  3.55561755e-05 -3.51544592e-05 
 8.12500000e-09  4.08266700e-07  3.55517060e-05 -3.51434393e-05 
 8.17500000e-09  4.11659303e-07  3.55441089e-05 -3.51324496e-05 
 8.22500000e-09  4.18219846e-07  3.55397095e-05 -3.51214897e-05 
 8.27500000e-09  4.21604707e-07  3.55321643e-05 -3.51105596e-05 
 8.32500000e-09  4.28173089e-07  3.55278321e-05 -3.50996590e-05 
 8.37500000e-09  4.31549330e-07  3.55203372e-05 -3.50887879e-05 
 8.42500000e-09  4.38123349e-07  3.55160694e-05 -3.50779460e-05 
 8.47500000e-09  4.41490169e-07  3.55086235e-05 -3.50671334e-05 
 8.52500000e-09  4.48067727e-07  3.55044173e-05 -3.50563496e-05 
 8.57500000e-09  4.51424404e-07  3.54970192e-05 -3.50455948e-05 
 8.62500000e-09  4.58003570e-07  3.54928721e-05 -3.50348686e-05 
 8.67500000e-09  4.61349450e-07  3.54855205e-05 -3.50241710e-05 
 8.72500000e-09  4.67928423e-07  3.54814302e-05 -3.50135018e-05 
 8.77500000e-09  4.71262906e-07  3.54741239e-05 -3.50028610e-05 
 8.82500000e-09  4.77839991e-07  3.54700883e-05 -3.49922483e-05 
 8.87500000e-09  4.81162540e-07  3.54628262e-05 -3.49816637e-05 
 8.92500000e-09  4.87736164e-07  3.54588431e-05 -3.49711069e-05 
 8.97500000e-09  4.91046288e-07  3.54516244e-05 -3.49605781e-05 
 9.02500000e-09  4.97614953e-07  3.54476918e-05 -3.49500768e-05 
 9.07500000e-09  5.00912214e-07  3.54405154e-05 -3.49396032e-05 
 9.12500000e-09  5.07474569e-07  3.54366315e-05 -3.49291569e-05 
 9.17500000e-09  5.10758539e-07  3.54294966e-05 -3.49187381e-05 
 9.22500000e-09  5.17313293e-07  3.54256597e-05 -3.49083464e-05 
 9.27500000e-09  5.20583625e-07  3.54185654e-05 -3.48979818e-05 
 9.32500000e-09  5.27129577e-07  3.54147738e-05 -3.48876442e-05 
 9.37500000e-09  5.30385924e-07  3.54077195e-05 -3.48773336e-05 
 9.42500000e-09  5.36921960e-07  3.54039716e-05 -3.48670497e-05 
 9.47500000e-09  5.40164005e-07  3.53969565e-05 -3.48567925e-05 
 9.52500000e-09  5.46689082e-07  3.53932509e-05 -3.48465618e-05 
 9.57500000e-09  5.49916559e-07  3.53862743e-05 -3.48363577e-05 
 9.62500000e-09  5.56429732e-07  3.53826097e-05 -3.48261799e-05 
 9.67500000e-09  5.59642348e-07  3.53756708e-05 -3.48160285e-05 
 9.72500000e-09  5.66142697e-07  3.53720458e-05 -3.48059031e-05 
 9.77500000e-09  5.69340257e-07  3.53651442e-05 -3.47958039e-05 
 9.82500000e-09  5.75826952e-07  3.53615576e-05 -3.47857307e-05 
 9.87500000e-09  5.79009217e-07  3.53546926e-05 -3.47756834e-05 
 9.92500000e-09  5.85481473e-07  3.53511433e-05 -3.47656619e-05 
 9.97500000e-09  5.88648277e-07  3.53443144e-05 -3.47556661e-05 
 1.00250000e-08  5.95105373e-07  3.53408013e-05 -3.47456959e-05 
 1.00750000e-08  5.98256538e-07  3.53340078e-05 -3.47357513e-05 
 1.01250000e-08  6.04697790e-07  3.53305299e-05 -3.47258321e-05 
 1.01750000e-08  6.07833144e-07  3.53237714e-05 -3.47159383e-05 
 1.02250000e-08  6.14257951e-07  3.53203277e-05 -3.47060697e-05 
 1.02750000e-08  6.17377362e-07  3.53136038e-05 -3.46962264e-05 
 1.03250000e-08  6.23785118e-07  3.53101933e-05 -3.46864082e-05 
 1.03750000e-08  6.26888442e-07  3.53035035e-05 -3.46766150e-05 
 1.04250000e-08  6.33278643e-07  3.53001254e-05 -3.46668468e-05 
 1.04750000e-08  6.36365777e-07  3.52934692e-05 -3.46571034e-05 
 1.05250000e-08  6.42737917e-07  3.52901227e-05 -3.46473848e-05 
 1.05750000e-08  6.45808755e-07  3.52834997e-05 -3.46376910e-05 
 1.06250000e-08  6.52162356e-07  3.52801841e-05 -3.46280217e-05 
 1.06750000e-08  6.55216817e-07  3.52735938e-05 -3.46183770e-05 
 1.07250000e-08  6.61551462e-07  3.52703083e-05 -3.46087568e-05 
 1.07750000e-08  6.64589441e-07  3.52637504e-05 -3.45991610e-05 
 1.08250000e-08  6.70904757e-07  3.52604943e-05 -3.45895895e-05 
 1.08750000e-08  6.73926194e-07  3.52539685e-05 -3.45800423e-05 
 1.09250000e-08  6.80221815e-07  3.52507410e-05 -3.45705192e-05 
 1.09750000e-08  6.83226640e-07  3.52442469e-05 -3.45610203e-05 
 1.10000000e-08  6.87184890e-07  3.52434647e-05 -3.45562798e-05 
 1.10050000e-08  6.95544203e-07  3.52508812e-05 -3.45553370e-05 
 1.10150000e-08  6.79257055e-07  3.52327000e-05 -3.45534430e-05 
 1.10350000e-08  6.90920895e-07  3.52405716e-05 -3.45496507e-05 
 1.10750000e-08  6.93047408e-07  3.52351414e-05 -3.45420940e-05 
 1.11250000e-08  6.98449867e-07  3.52311173e-05 -3.45326675e-05 
 1.11750000e-08  7.01985721e-07  3.52252499e-05 -3.45232642e-05 
 1.12250000e-08  7.07698502e-07  3.52215832e-05 -3.45138847e-05 
 1.12750000e-08  7.11188164e-07  3.52157171e-05 -3.45045289e-05 
 1.13250000e-08  7.16907501e-07  3.52121044e-05 -3.44951969e-05 
 1.13750000e-08  7.20594549e-07  3.52064836e-05 -3.44858890e-05 
 1.14250000e-08  7.26268393e-07  3.52028735e-05 -3.44766051e-05 
 1.14750000e-08  7.29737178e-07  3.51970819e-05 -3.44673448e-05 
 1.15250000e-08  7.33015727e-07  3.51911177e-05 -3.44581020e-05 
 1.15750000e-08  7.42875253e-07  3.51917679e-05 -3.44488926e-05 
 1.16250000e-08  7.46496505e-07  3.51862138e-05 -3.44397173e-05 
 1.16750000e-08  7.65035755e-07  3.51956335e-05 -3.44305977e-05 
 1.17250000e-08  7.28971772e-07  3.51504068e-05 -3.44214350e-05 
 1.17750000e-08  7.43471474e-07  3.51556914e-05 -3.44122199e-05 
 1.18250000e-08  7.42279877e-07  3.51453182e-05 -3.44030384e-05 
 1.18750000e-08  7.16235189e-07  3.51100251e-05 -3.43937899e-05 
 1.19250000e-08  6.17372287e-07  3.50016044e-05 -3.43842321e-05 
 1.19750000e-08  2.94547829e-07  3.46681762e-05 -3.43736284e-05 
 1.20000000e-08  1.49085398e-07  3.45168319e-05 -3.43677465e-05 
 1.20050000e-08  2.07426652e-07  3.45739901e-05 -3.43665634e-05 
 1.20150000e-08  5.18855223e-07  3.48832080e-05 -3.43643528e-05 
 1.20350000e-08  2.10357206e-06  3.64653896e-05 -3.43618175e-05 
 1.20750000e-08  9.12389426e-06  4.34977304e-05 -3.43738362e-05 
 1.21250000e-08  1.86926998e-05  5.31226969e-05 -3.44299970e-05 
 1.21750000e-08  1.92917157e-05  5.38030326e-05 -3.45113169e-05 
 1.22250000e-08  1.57789515e-05  5.03643128e-05 -3.45853613e-05 
 1.22750000e-08  1.17272332e-05  4.63678120e-05 -3.46405788e-05 
 1.23250000e-08  8.15071568e-06  4.28275277e-05 -3.46768121e-05 
 1.23750000e-08  5.73363600e-06  4.04320945e-05 -3.46984585e-05 
 1.24250000e-08  4.28145615e-06  3.89937567e-05 -3.47123006e-05 
 1.24750000e-08  2.72537647e-06  3.74488870e-05 -3.47235106e-05 
 1.25250000e-08  1.24671695e-06  3.59820736e-05 -3.47353566e-05 
 1.25750000e-08 -5.81091549e-07  3.41687117e-05 -3.47498033e-05 
 1.26250000e-08 -2.36749975e-06  3.24005536e-05 -3.47680534e-05 
 1.26750000e-08 -4.47478352e-06  3.03160828e-05 -3.47908664e-05 
 1.27250000e-08 -6.44772746e-06  2.83711708e-05 -3.48188983e-05 
 1.27750000e-08 -8.62023231e-06  2.62323778e-05 -3.48526101e-05 
 1.28250000e-08 -1.05961456e-05  2.42962575e-05 -3.48924031e-05 
 1.28750000e-08 -1.31855830e-05  2.17541375e-05 -3.49397205e-05 
 1.29250000e-08 -1.85322196e-05  1.64711432e-05 -3.50033628e-05 
 1.29750000e-08 -2.87702887e-05  6.33233965e-06 -3.51026283e-05 
 1.30250000e-08 -2.38466988e-05  1.13654755e-05 -3.52121743e-05 
 1.30750000e-08 -1.54659581e-05  1.98201933e-05 -3.52861515e-05 
 1.31250000e-08 -7.65551212e-06  2.76622450e-05 -3.53177571e-05 
 1.31750000e-08 -3.33157324e-06  3.19858809e-05 -3.53174541e-05 
 1.32250000e-08 -8.66839112e-08  3.52102587e-05 -3.52969426e-05 
 1.32750000e-08  9.48938542e-07  3.62136333e-05 -3.52646948e-05 
 1.33250000e-08  2.13081598e-06  3.73568933e-05 -3.52260773e-05 
 1.33750000e-08  2.04033332e-06  3.72244120e-05 -3.51840787e-05 
 1.34250000e-08  2.58950222e-06  3.77299235e-05 -3.51404212e-05 
 1.34750000e-08  2.20627308e-06  3.73022253e-05 -3.50959523e-05 
 1.35250000e-08  2.58214855e-06  3.76333479e-05 -3.50511993e-05 
 1.35750000e-08  2.14553031e-06  3.71519047e-05 -3.50063744e-05 
 1.36250000e-08  2.47076630e-06  3.74324356e-05 -3.49616693e-05 
 1.36750000e-08  2.04187996e-06  3.69589988e-05 -3.49171189e-05 
 1.37250000e-08  2.34820219e-06  3.72210194e-05 -3.48728172e-05 
 1.37750000e-08  1.94066275e-06  3.67694116e-05 -3.48287488e-05 
 1.38250000e-08  2.23581730e-06  3.70207932e-05 -3.47849759e-05 
 1.38750000e-08  1.85146044e-06  3.65929276e-05 -3.47414672e-05 
 1.39250000e-08  2.13730598e-06  3.68355770e-05 -3.46982710e-05 
 1.39750000e-08  1.77525402e-06  3.64306045e-05 -3.46553505e-05 
 1.40250000e-08  2.05228440e-06  3.66650309e-05 -3.46127465e-05 
